0	0.04544516	Vkt5Easy2.exe	IRP_MJ_CREATE	Npdrv2	SUCCESS	Options: Open 	
1	0.00000363	Vkt5Easy2.exe	IOCTL_SERIAL_GET_BAUD_RATE	Npdrv2	SUCCESS		
2	0.00000140	Vkt5Easy2.exe	IOCTL_SERIAL_GET_LINE_CONTROL	Npdrv2	SUCCESS		
3	0.00000112	Vkt5Easy2.exe	IOCTL_SERIAL_GET_CHARS	Npdrv2	SUCCESS		
4	0.00000084	Vkt5Easy2.exe	IOCTL_SERIAL_GET_HANDFLOW	Npdrv2	SUCCESS		
5	0.00000140	Vkt5Easy2.exe	IOCTL_SERIAL_GET_BAUD_RATE	Npdrv2	SUCCESS		
6	0.00000112	Vkt5Easy2.exe	IOCTL_SERIAL_GET_LINE_CONTROL	Npdrv2	SUCCESS		
7	0.00000084	Vkt5Easy2.exe	IOCTL_SERIAL_GET_CHARS	Npdrv2	SUCCESS		
8	0.00000112	Vkt5Easy2.exe	IOCTL_SERIAL_GET_HANDFLOW	Npdrv2	SUCCESS		
9	0.00000168	Vkt5Easy2.exe	IOCTL_SERIAL_SET_BAUD_RATE	Npdrv2	SUCCESS	Rate: 9600	
10	0.00000196	Vkt5Easy2.exe	IOCTL_SERIAL_SET_RTS	Npdrv2	SUCCESS		
11	0.00000140	Vkt5Easy2.exe	IOCTL_SERIAL_SET_DTR	Npdrv2	SUCCESS		
12	0.00000196	Vkt5Easy2.exe	IOCTL_SERIAL_SET_LINE_CONTROL	Npdrv2	SUCCESS	StopBits: 1 Parity: NONE WordLength: 8	
13	0.00000168	Vkt5Easy2.exe	IOCTL_SERIAL_SET_CHAR	Npdrv2	SUCCESS	EOF:0 ERR:0 BRK:0 EVT:0 XON:11 XOFF:13	
14	0.01526395	Vkt5Easy2.exe	IOCTL_SERIAL_SET_HANDFLOW	Npdrv2	SUCCESS	Shake:1 Replace:40 XonLimit:0 XoffLimit:0	
15	0.29688187	Vkt5Easy2.exe	IOCTL_SERIAL_PURGE	Npdrv2	SUCCESS	Purge: TXCLEAR RXCLEAR	
16	0.00000419	Vkt5Easy2.exe	IOCTL_SERIAL_SET_WAIT_MASK	Npdrv2	SUCCESS	Mask: RXCHAR 	
17	0.00000168	Vkt5Easy2.exe	IOCTL_SERIAL_GET_TIMEOUTS	Npdrv2	SUCCESS		
18	0.00000168	Vkt5Easy2.exe	IOCTL_SERIAL_SET_TIMEOUTS	Npdrv2	SUCCESS	RI:16 RM:0 RC:0 WM:0 WC:0	
19	0.28011381	Vkt5Easy2.exe	IOCTL_SERIAL_PURGE	Npdrv2	SUCCESS	Purge: TXCLEAR RXCLEAR	
20	0.31140913	Vkt5Easy2.exe	IOCTL_SERIAL_PURGE	Npdrv2	SUCCESS	Purge: TXCLEAR 	
21	0.00000475	Vkt5Easy2.exe	IOCTL_SERIAL_GET_COMMSTATUS	Npdrv2	SUCCESS		
22	0.50471471	Vkt5Easy2.exe	IOCTL_SERIAL_WAIT_ON_MASK	Npdrv2	SUCCESS		
23	0.00000223	Vkt5Easy2.exe	IOCTL_SERIAL_SET_DTR	Npdrv2	SUCCESS		
24	0.00000140	Vkt5Easy2.exe	IOCTL_SERIAL_SET_RTS	Npdrv2	SUCCESS		
25	0.00065427	Vkt5Easy2.exe	IRP_MJ_WRITE	Npdrv2	SUCCESS	Length 8: 00 03 0E 00 00 01 87 33 	 -- запрос версии ПО
26	0.00000503	Vkt5Easy2.exe	IOCTL_SERIAL_GET_COMMSTATUS	Npdrv2	SUCCESS		
27	0.04194779	Vkt5Easy2.exe	IRP_MJ_READ	Npdrv2	TIMEOUT	Length 7: 00 03 02 00 7D 45 A5 	
28	0.13863354	Vkt5Easy2.exe	IOCTL_SERIAL_PURGE	Npdrv2	SUCCESS	Purge: TXCLEAR 	
29	0.73582117	Vkt5Easy2.exe	IOCTL_SERIAL_WAIT_ON_MASK	Npdrv2	SUCCESS		
30	0.00000307	Vkt5Easy2.exe	IOCTL_SERIAL_SET_DTR	Npdrv2	SUCCESS		
31	0.00000112	Vkt5Easy2.exe	IOCTL_SERIAL_SET_RTS	Npdrv2	SUCCESS		

32	0.00065539	Vkt5Easy2.exe	IRP_MJ_WRITE	Npdrv2	SUCCESS	Length 8: 00 03 0A 00 00 00 47 C3 	  -- запрос конфигурации
33	0.00000475	Vkt5Easy2.exe	IOCTL_SERIAL_GET_COMMSTATUS	Npdrv2	SUCCESS		
34	0.04414863	Vkt5Easy2.exe	IRP_MJ_READ	Npdrv2	TIMEOUT	Length 65: 00 03 3C 00 00 00 00 FF 02 00 00 01 00 00 FF 02 00 00 00 00 00 FF 02 00 00 00 00 00 FF 00 00 01 00 03 01 00 02 01 01 01 03 01 00 02 01 00 00 00 00 00 00 00 00 00 00 00 00 00 00 FF FF 00 01 B9 B3 	
35	0.13917607	Vkt5Easy2.exe	IOCTL_SERIAL_PURGE	Npdrv2	SUCCESS	Purge: TXCLEAR 	
36	1.07795879	Vkt5Easy2.exe	IOCTL_SERIAL_WAIT_ON_MASK	Npdrv2	SUCCESS		
37	0.00000391	Vkt5Easy2.exe	IOCTL_SERIAL_SET_DTR	Npdrv2	SUCCESS		
38	0.00000168	Vkt5Easy2.exe	IOCTL_SERIAL_SET_RTS	Npdrv2	SUCCESS		

39	0.00065539	Vkt5Easy2.exe	IRP_MJ_WRITE	Npdrv2	SUCCESS	Length 8: 00 03 14 00 00 00 41 EB 	  -- интервал дат архива
40	0.00000503	Vkt5Easy2.exe	IOCTL_SERIAL_GET_COMMSTATUS	Npdrv2	SUCCESS		
41	0.04579884	Vkt5Easy2.exe	IRP_MJ_READ	Npdrv2	TIMEOUT	Length 6: 00 83 05 00 F2 9C   -----! ошибка !!!!  5 ->  архив в приборе пуст !	
42	0.13924367	Vkt5Easy2.exe	IOCTL_SERIAL_PURGE	Npdrv2	SUCCESS	Purge: TXCLEAR 	
43	0.63443426	Vkt5Easy2.exe	IOCTL_SERIAL_WAIT_ON_MASK	Npdrv2	SUCCESS		
44	0.00000363	Vkt5Easy2.exe	IOCTL_SERIAL_SET_DTR	Npdrv2	SUCCESS		
45	0.00000112	Vkt5Easy2.exe	IOCTL_SERIAL_SET_RTS	Npdrv2	SUCCESS		
46	0.00065232	Vkt5Easy2.exe	IRP_MJ_WRITE	Npdrv2	SUCCESS	Length 8: 00 03 0B 00 00 0A C6 38 	-- запрос текущей даты ??
47	0.00000559	Vkt5Easy2.exe	IOCTL_SERIAL_GET_COMMSTATUS	Npdrv2	SUCCESS		
48	0.03610291	Vkt5Easy2.exe	IRP_MJ_READ	Npdrv2	TIMEOUT	Length 15: 00 03 0A 07 DF 00 06 00 02 00 10 00 1E D5 D5 	
49	0.13915540	Vkt5Easy2.exe	IOCTL_SERIAL_PURGE	Npdrv2	SUCCESS	Purge: TXCLEAR 	
50	0.80037128	Vkt5Easy2.exe	IOCTL_SERIAL_WAIT_ON_MASK	Npdrv2	SUCCESS		
51	0.00000307	Vkt5Easy2.exe	IOCTL_SERIAL_SET_DTR	Npdrv2	SUCCESS		
52	0.00000112	Vkt5Easy2.exe	IOCTL_SERIAL_SET_RTS	Npdrv2	SUCCESS		
53	0.00065344	Vkt5Easy2.exe	IRP_MJ_WRITE	Npdrv2	SUCCESS	Length 8: 00 03 10 00 00 FE C1 5B 	
54	0.00000503	Vkt5Easy2.exe	IOCTL_SERIAL_GET_COMMSTATUS	Npdrv2	SUCCESS		
55	0.04180140	Vkt5Easy2.exe	IRP_MJ_READ	Npdrv2	TIMEOUT	Length 104: 00 03 FE 78 DF AA 55 30 30 30 30 30 30 30 30 30 30 30 30 00 FF FF FF 42 00 02 00 00 00 00 FF FF 00 00 FF FF FF FF FF FF FF FF FF FF FF FF FF FF FF FF FF FF FF FF 01 02 00 00 00 00 FF 03 FF FF FF FF FF FF FF FF FF FF FF FF FF FF FF FF FF FF FF FF FF FF 00 02 00 00 00 00 FF FF FF FF FF FF FF FF FF FF FF FF FF FF 	
56	0.07604961	Vkt5Easy2.exe	IOCTL_SERIAL_WAIT_ON_MASK	Npdrv2	SUCCESS		
57	0.00000531	Vkt5Easy2.exe	IOCTL_SERIAL_GET_COMMSTATUS	Npdrv2	SUCCESS		
58	0.03217532	Vkt5Easy2.exe	IRP_MJ_READ	Npdrv2	TIMEOUT	Length 104: FF FF FF FF FF FF FF FF FF FF 00 00 00 00 00 00 FF FF FF FF FF FF FF FF FF FF FF FF FF FF FF FF FF FF FF FF FF FF FF FF 00 02 01 01 03 01 00 03 FF FF FF FF FF FF FF FF FF FF FF FF FF FF FF FF FF FF FF FF FF FF 01 02 01 01 03 01 00 03 FF 00 FF FF FF FF FF FF FF FF FF FF FF FF FF FF FF FF FF FF FF FF 00 00 00 00 	
59	0.03068127	Vkt5Easy2.exe	IOCTL_SERIAL_WAIT_ON_MASK	Npdrv2	SUCCESS		
60	0.00000559	Vkt5Easy2.exe	IOCTL_SERIAL_GET_COMMSTATUS	Npdrv2	SUCCESS		
61	0.04619218	Vkt5Easy2.exe	IRP_MJ_READ	Npdrv2	TIMEOUT	Length 51: 00 00 00 FF FF FF FF FF FF FF FF FF FF FF FF FF FF FF FF FF FF FF FF FF FF FF 00 00 00 00 00 00 00 FF FF FF FF FF FF FF FF FF FF FF FF FF FF FF FF 86 39 	
62	0.13804129	Vkt5Easy2.exe	IOCTL_SERIAL_PURGE	Npdrv2	SUCCESS	Purge: TXCLEAR 	
63	0.80198545	Vkt5Easy2.exe	IOCTL_SERIAL_WAIT_ON_MASK	Npdrv2	SUCCESS		
64	0.00000335	Vkt5Easy2.exe	IOCTL_SERIAL_SET_DTR	Npdrv2	SUCCESS		
65	0.00000140	Vkt5Easy2.exe	IOCTL_SERIAL_SET_RTS	Npdrv2	SUCCESS		
66	0.00071070	Vkt5Easy2.exe	IRP_MJ_WRITE	Npdrv2	SUCCESS	Length 8: 00 03 10 01 00 FE 90 9B 	
67	0.00000503	Vkt5Easy2.exe	IOCTL_SERIAL_GET_COMMSTATUS	Npdrv2	SUCCESS		
68	0.04030177	Vkt5Easy2.exe	IRP_MJ_READ	Npdrv2	TIMEOUT	Length 104: 00 03 FE FF FF FF FF FF FF FF FF 02 FF FF 01 FF 00 05 FF FF 00 00 00 08 FF FF FF FF FF FF FF FF FF FF FF FF FF FF FF FF FF FF FF FF FF FF FF FF FF FF FF FF FF FF FF FF FF FF FF FF FF FF FF FF FF FF FF FF FF 00 00 00 00 00 00 00 00 00 00 00 00 00 00 00 00 01 08 FF FF FF FF FF FF FF FF FF FF FF FF FF FF FF FF FF 	
69	0.07771602	Vkt5Easy2.exe	IOCTL_SERIAL_WAIT_ON_MASK	Npdrv2	SUCCESS		
70	0.00000587	Vkt5Easy2.exe	IOCTL_SERIAL_GET_COMMSTATUS	Npdrv2	SUCCESS		
71	0.04566642	Vkt5Easy2.exe	IRP_MJ_READ	Npdrv2	TIMEOUT	Length 104: FF FF FF FF FF FF FF FF FF FF FF FF FF FF FF FF FF FF FF FF FF FF FF FF FF FF FF FF 00 00 00 00 00 00 00 00 00 00 00 00 00 00 00 00 02 08 FF FF FF FF FF FF FF FF FF FF FF FF FF FF FF FF FF FF FF FF FF FF FF FF FF FF FF FF FF FF FF FF FF FF FF FF FF FF FF FF FF FF FF FF FF 00 00 00 00 00 00 00 00 00 00 00 00 00 	
72	0.01597298	Vkt5Easy2.exe	IOCTL_SERIAL_WAIT_ON_MASK	Npdrv2	SUCCESS		
73	0.00000503	Vkt5Easy2.exe	IOCTL_SERIAL_GET_COMMSTATUS	Npdrv2	SUCCESS		
74	0.04541611	Vkt5Easy2.exe	IRP_MJ_READ	Npdrv2	TIMEOUT	Length 51: 00 00 00 02 08 FF FF FF FF FF FF FF FF FF FF FF FF FF FF FF FF FF FF FF FF FF FF FF FF FF FF FF FF FF FF FF FF FF FF FF FF FF FF FF FF FF FF FF FF 4B 4D 	
75	0.13862181	Vkt5Easy2.exe	IOCTL_SERIAL_PURGE	Npdrv2	SUCCESS	Purge: TXCLEAR 	
76	0.80521854	Vkt5Easy2.exe	IOCTL_SERIAL_WAIT_ON_MASK	Npdrv2	SUCCESS		
77	0.00000307	Vkt5Easy2.exe	IOCTL_SERIAL_SET_DTR	Npdrv2	SUCCESS		
78	0.00000168	Vkt5Easy2.exe	IOCTL_SERIAL_SET_RTS	Npdrv2	SUCCESS		
79	0.00065623	Vkt5Easy2.exe	IRP_MJ_WRITE	Npdrv2	SUCCESS	Length 8: 00 03 10 02 00 FE 60 9B 	
80	0.00000615	Vkt5Easy2.exe	IOCTL_SERIAL_GET_COMMSTATUS	Npdrv2	SUCCESS		
81	0.03699437	Vkt5Easy2.exe	IRP_MJ_READ	Npdrv2	TIMEOUT	Length 104: 00 03 FE FF 00 00 00 00 00 00 00 00 00 00 00 00 00 00 00 00 00 08 FF FF FF FF FF FF FF FF FF FF FF FF FF FF FF FF FF FF FF FF FF FF FF FF FF FF FF FF FF FF FF FF FF FF FF FF FF FF FF FF FF FF FF FF FF 00 00 00 00 00 00 00 00 00 00 00 00 00 00 00 00 01 08 FF FF FF FF FF FF FF FF FF FF FF FF FF FF FF FF FF FF FF 	
82	0.08090078	Vkt5Easy2.exe	IOCTL_SERIAL_WAIT_ON_MASK	Npdrv2	SUCCESS		
83	0.00000587	Vkt5Easy2.exe	IOCTL_SERIAL_GET_COMMSTATUS	Npdrv2	SUCCESS		
84	0.04298759	Vkt5Easy2.exe	IRP_MJ_READ	Npdrv2	TIMEOUT	Length 104: FF FF FF FF FF FF FF FF FF FF FF FF FF FF FF FF FF FF FF FF FF FF FF FF FF FF 00 00 00 00 00 00 00 00 00 00 00 00 00 00 00 00 02 08 FF FF FF FF FF FF FF FF FF FF FF FF FF FF FF FF FF FF FF FF FF FF FF FF FF FF FF FF FF FF FF FF FF FF FF FF FF FF FF FF FF FF FF FF FF 00 00 00 00 00 00 00 00 00 00 00 00 00 00 00 	
85	0.01876803	Vkt5Easy2.exe	IOCTL_SERIAL_WAIT_ON_MASK	Npdrv2	SUCCESS		
86	0.00000475	Vkt5Easy2.exe	IOCTL_SERIAL_GET_COMMSTATUS	Npdrv2	SUCCESS		
87	0.04222855	Vkt5Easy2.exe	IRP_MJ_READ	Npdrv2	TIMEOUT	Length 51: 00 02 08 FF FF FF FF FF FF FF FF FF FF FF FF FF FF FF FF FF FF FF FF FF FF FF FF FF FF FF FF FF FF FF FF FF FF FF FF FF FF FF FF FF FF FF FF FF 00 12 44 	
88	0.13909449	Vkt5Easy2.exe	IOCTL_SERIAL_PURGE	Npdrv2	SUCCESS	Purge: TXCLEAR 	
89	0.80742636	Vkt5Easy2.exe	IOCTL_SERIAL_WAIT_ON_MASK	Npdrv2	SUCCESS		
90	0.00000363	Vkt5Easy2.exe	IOCTL_SERIAL_SET_DTR	Npdrv2	SUCCESS		
91	0.00000140	Vkt5Easy2.exe	IOCTL_SERIAL_SET_RTS	Npdrv2	SUCCESS		
92	0.00066237	Vkt5Easy2.exe	IRP_MJ_WRITE	Npdrv2	SUCCESS	Length 8: 00 03 10 03 00 FE 31 5B 	
93	0.00000531	Vkt5Easy2.exe	IOCTL_SERIAL_GET_COMMSTATUS	Npdrv2	SUCCESS		
94	0.03485946	Vkt5Easy2.exe	IRP_MJ_READ	Npdrv2	TIMEOUT	Length 104: 00 03 FE 00 00 00 00 00 00 00 00 00 00 00 00 00 00 00 00 08 FF FF FF FF FF FF FF FF FF FF FF FF FF FF FF FF FF FF FF FF FF FF FF FF FF FF FF FF FF FF FF FF FF FF FF FF FF FF FF FF FF FF FF FF FF 00 00 00 00 00 00 00 00 00 00 00 00 00 00 00 00 01 08 FF FF FF FF FF FF FF FF FF FF FF FF FF FF FF FF FF FF FF FF FF 	
95	0.08385870	Vkt5Easy2.exe	IOCTL_SERIAL_WAIT_ON_MASK	Npdrv2	SUCCESS		
96	0.00000503	Vkt5Easy2.exe	IOCTL_SERIAL_GET_COMMSTATUS	Npdrv2	SUCCESS		
97	0.03999223	Vkt5Easy2.exe	IRP_MJ_READ	Npdrv2	TIMEOUT	Length 104: FF FF FF FF FF FF FF FF FF FF FF FF FF FF FF FF FF FF FF FF FF FF FF FF 00 00 00 00 00 00 00 00 00 00 00 00 00 00 00 00 02 08 FF FF FF FF FF FF FF FF FF FF FF FF FF FF FF FF FF FF FF FF FF FF FF FF FF FF FF FF FF FF FF FF FF FF FF FF FF FF FF FF FF FF FF FF FF 00 00 00 00 00 00 00 00 00 00 00 00 00 00 00 00 02 	
98	0.02206454	Vkt5Easy2.exe	IOCTL_SERIAL_WAIT_ON_MASK	Npdrv2	SUCCESS		
99	0.00000447	Vkt5Easy2.exe	IOCTL_SERIAL_GET_COMMSTATUS	Npdrv2	SUCCESS		
100	0.03922538	Vkt5Easy2.exe	IRP_MJ_READ	Npdrv2	TIMEOUT	Length 51: 08 FF FF FF FF FF FF FF FF FF FF FF FF FF FF FF FF FF FF FF FF FF FF FF FF FF FF FF FF FF FF FF FF FF FF FF FF FF FF FF FF FF FF FF FF FF 00 00 00 04 61 	
101	0.13904728	Vkt5Easy2.exe	IOCTL_SERIAL_PURGE	Npdrv2	SUCCESS	Purge: TXCLEAR 	
102	0.80843292	Vkt5Easy2.exe	IOCTL_SERIAL_WAIT_ON_MASK	Npdrv2	SUCCESS		
103	0.00000335	Vkt5Easy2.exe	IOCTL_SERIAL_SET_DTR	Npdrv2	SUCCESS		
104	0.00000168	Vkt5Easy2.exe	IOCTL_SERIAL_SET_RTS	Npdrv2	SUCCESS		
105	0.00065595	Vkt5Easy2.exe	IRP_MJ_WRITE	Npdrv2	SUCCESS	Length 8: 00 03 10 04 00 FE 80 9A 	
106	0.00000475	Vkt5Easy2.exe	IOCTL_SERIAL_GET_COMMSTATUS	Npdrv2	SUCCESS		
107	0.03385291	Vkt5Easy2.exe	IRP_MJ_READ	Npdrv2	TIMEOUT	Length 104: 00 03 FE 00 00 00 00 00 00 00 00 00 00 00 00 00 00 08 FF FF FF FF FF FF FF FF FF FF FF FF FF FF FF FF FF FF FF FF FF FF FF FF FF FF FF FF FF FF FF FF FF FF FF FF FF FF FF FF FF FF FF FF FF 00 00 00 00 00 00 00 00 00 00 00 00 00 00 00 00 01 08 FF FF FF FF FF FF FF FF FF FF FF FF FF FF FF FF FF FF FF FF FF FF FF 	
108	0.08402995	Vkt5Easy2.exe	IOCTL_SERIAL_WAIT_ON_MASK	Npdrv2	SUCCESS		
109	0.00000503	Vkt5Easy2.exe	IOCTL_SERIAL_GET_COMMSTATUS	Npdrv2	SUCCESS		
110	0.03981623	Vkt5Easy2.exe	IRP_MJ_READ	Npdrv2	TIMEOUT	Length 104: FF FF FF FF FF FF FF FF FF FF FF FF FF FF FF FF FF FF FF FF FF FF 00 00 00 00 00 00 00 00 00 00 00 00 00 00 00 00 02 08 FF FF FF FF FF FF FF FF FF FF FF FF FF FF FF FF FF FF FF FF FF FF FF FF FF FF FF FF FF FF FF FF FF FF FF FF FF FF FF FF FF FF FF FF FF 00 00 00 00 00 00 00 00 00 00 00 00 00 00 00 00 02 08 FF 	
111	0.02230619	Vkt5Easy2.exe	IOCTL_SERIAL_WAIT_ON_MASK	Npdrv2	SUCCESS		
112	0.00000447	Vkt5Easy2.exe	IOCTL_SERIAL_GET_COMMSTATUS	Npdrv2	SUCCESS		
113	0.03905664	Vkt5Easy2.exe	IRP_MJ_READ	Npdrv2	TIMEOUT	Length 51: FF FF FF FF FF FF FF FF FF FF FF FF FF FF FF FF FF FF FF FF FF FF FF FF FF FF FF FF FF FF FF FF FF FF FF FF FF FF FF FF FF FF FF FF 00 00 00 00 00 BB 8E 	
114	0.13914757	Vkt5Easy2.exe	IOCTL_SERIAL_PURGE	Npdrv2	SUCCESS	Purge: TXCLEAR 	
115	0.80977024	Vkt5Easy2.exe	IOCTL_SERIAL_WAIT_ON_MASK	Npdrv2	SUCCESS		
116	0.00000363	Vkt5Easy2.exe	IOCTL_SERIAL_SET_DTR	Npdrv2	SUCCESS		
117	0.00000112	Vkt5Easy2.exe	IOCTL_SERIAL_SET_RTS	Npdrv2	SUCCESS		
118	0.00065316	Vkt5Easy2.exe	IRP_MJ_WRITE	Npdrv2	SUCCESS	Length 8: 00 03 10 05 00 FE D1 5A 	
119	0.00000503	Vkt5Easy2.exe	IOCTL_SERIAL_GET_COMMSTATUS	Npdrv2	SUCCESS		
120	0.03253849	Vkt5Easy2.exe	IRP_MJ_READ	Npdrv2	TIMEOUT	Length 104: 00 03 FE 00 00 00 00 00 00 00 00 00 00 00 00 09 0C FF FF FF FF FF FF FF FF FF FF FF FF FF FF FF FF FF FF FF FF FF FF FF FF FF FF FF FF FF FF FF FF FF FF FF FF FF FF FF FF FF FF FF FF 00 00 00 00 00 00 00 00 00 00 00 00 00 00 00 00 01 06 FF FF FF FF FF FF FF FF FF FF FF FF FF FF FF FF FF FF FF FF FF FF FF FF FF 	
121	0.08520189	Vkt5Easy2.exe	IOCTL_SERIAL_WAIT_ON_MASK	Npdrv2	SUCCESS		
122	0.00000475	Vkt5Easy2.exe	IOCTL_SERIAL_GET_COMMSTATUS	Npdrv2	SUCCESS		
123	0.03848701	Vkt5Easy2.exe	IRP_MJ_READ	Npdrv2	TIMEOUT	Length 104: FF FF FF FF FF FF FF FF FF FF FF FF FF FF FF FF FF FF FF FF 00 00 00 00 00 00 00 00 00 00 00 00 00 00 00 00 02 07 04 43 96 00 00 41 20 00 00 42 C8 00 00 FF FF FF FF FF FF FF FF FF FF FF FF FF FF FF FF 41 20 00 00 FF FF FF FF FF FF FF FF FF FF FF FF 00 00 00 00 00 00 00 00 00 00 00 00 00 00 00 00 02 07 FF FF FF 	
124	0.02366921	Vkt5Easy2.exe	IOCTL_SERIAL_WAIT_ON_MASK	Npdrv2	SUCCESS		
125	0.00000447	Vkt5Easy2.exe	IOCTL_SERIAL_GET_COMMSTATUS	Npdrv2	SUCCESS		
126	0.03770982	Vkt5Easy2.exe	IRP_MJ_READ	Npdrv2	TIMEOUT	Length 51: FF FF FF FF FF FF FF FF FF FF FF FF FF FF FF FF FF FF FF FF FF FF FF FF FF FF FF FF FF FF FF FF FF FF FF FF FF FF FF FF FF FF 00 00 00 00 00 00 00 39 F7 	
127	0.13901320	Vkt5Easy2.exe	IOCTL_SERIAL_PURGE	Npdrv2	SUCCESS	Purge: TXCLEAR 	
128	0.81095419	Vkt5Easy2.exe	IOCTL_SERIAL_WAIT_ON_MASK	Npdrv2	SUCCESS		
129	0.00000335	Vkt5Easy2.exe	IOCTL_SERIAL_SET_DTR	Npdrv2	SUCCESS		
130	0.00000112	Vkt5Easy2.exe	IOCTL_SERIAL_SET_RTS	Npdrv2	SUCCESS		
131	0.00065232	Vkt5Easy2.exe	IRP_MJ_WRITE	Npdrv2	SUCCESS	Length 8: 00 03 10 06 00 FE 21 5A 	
132	0.00000531	Vkt5Easy2.exe	IOCTL_SERIAL_GET_COMMSTATUS	Npdrv2	SUCCESS		
133	0.03132325	Vkt5Easy2.exe	IRP_MJ_READ	Npdrv2	TIMEOUT	Length 104: 00 03 FE 00 00 00 00 00 00 00 00 00 00 09 0D FF FF FF FF FF FF FF FF FF FF FF FF FF FF FF FF FF FF FF FF FF FF FF FF FF FF FF FF FF FF FF FF FF FF FF FF FF FF FF FF FF FF FF FF 00 00 00 00 00 00 00 00 00 00 00 00 00 00 00 00 01 06 FF FF FF FF FF FF FF FF FF FF FF FF FF FF FF FF FF FF FF FF FF FF FF FF FF FF FF 	
134	0.08651295	Vkt5Easy2.exe	IOCTL_SERIAL_WAIT_ON_MASK	Npdrv2	SUCCESS		
135	0.00000531	Vkt5Easy2.exe	IOCTL_SERIAL_GET_COMMSTATUS	Npdrv2	SUCCESS		
136	0.03727429	Vkt5Easy2.exe	IRP_MJ_READ	Npdrv2	TIMEOUT	Length 104: FF FF FF FF FF FF FF FF FF FF FF FF FF FF FF FF FF FF 00 00 00 00 00 00 00 00 00 00 00 00 00 00 00 00 02 07 05 43 96 00 00 41 20 00 00 42 C8 00 00 FF FF FF FF FF FF FF FF FF FF FF FF FF FF FF FF 41 20 00 00 FF FF FF FF FF FF FF FF FF FF FF FF 00 00 00 00 00 00 00 00 00 00 00 00 00 00 00 00 02 07 FF FF FF FF FF 	
137	0.02486070	Vkt5Easy2.exe	IOCTL_SERIAL_WAIT_ON_MASK	Npdrv2	SUCCESS		
138	0.00000475	Vkt5Easy2.exe	IOCTL_SERIAL_GET_COMMSTATUS	Npdrv2	SUCCESS		
139	0.03653062	Vkt5Easy2.exe	IRP_MJ_READ	Npdrv2	TIMEOUT	Length 51: FF FF FF FF FF FF FF FF FF FF FF FF FF FF FF FF FF FF FF FF FF FF FF FF FF FF FF FF FF FF FF FF FF FF FF FF FF FF FF FF 00 00 00 00 00 00 00 00 00 85 CF 	
140	0.13901851	Vkt5Easy2.exe	IOCTL_SERIAL_PURGE	Npdrv2	SUCCESS	Purge: TXCLEAR 	
141	0.81351177	Vkt5Easy2.exe	IOCTL_SERIAL_WAIT_ON_MASK	Npdrv2	SUCCESS		
142	0.00000335	Vkt5Easy2.exe	IOCTL_SERIAL_SET_DTR	Npdrv2	SUCCESS		
143	0.00000140	Vkt5Easy2.exe	IOCTL_SERIAL_SET_RTS	Npdrv2	SUCCESS		
144	0.00065427	Vkt5Easy2.exe	IRP_MJ_WRITE	Npdrv2	SUCCESS	Length 8: 00 03 10 07 00 FE 70 9A 	
145	0.00000447	Vkt5Easy2.exe	IOCTL_SERIAL_GET_COMMSTATUS	Npdrv2	SUCCESS		
146	0.04436765	Vkt5Easy2.exe	IRP_MJ_READ	Npdrv2	TIMEOUT	Length 104: 00 03 FE 00 00 00 00 00 00 00 02 08 FF FF FF FF FF FF FF FF FF FF FF FF FF FF FF FF FF FF FF FF FF FF FF FF FF FF FF FF FF FF FF FF FF FF FF FF FF FF FF FF FF FF FF FF FF 00 00 00 00 00 00 00 00 00 00 00 00 00 00 00 00 01 08 FF FF FF FF FF FF FF FF FF FF FF FF FF FF FF FF FF FF FF FF FF FF FF FF FF FF FF FF FF 	
147	0.07416557	Vkt5Easy2.exe	IOCTL_SERIAL_WAIT_ON_MASK	Npdrv2	SUCCESS		
148	0.00000503	Vkt5Easy2.exe	IOCTL_SERIAL_GET_COMMSTATUS	Npdrv2	SUCCESS		
149	0.03408310	Vkt5Easy2.exe	IRP_MJ_READ	Npdrv2	TIMEOUT	Length 104: FF FF FF FF FF FF FF FF FF FF FF FF FF FF FF FF 00 00 00 00 00 00 00 00 00 00 00 00 00 00 00 00 02 08 FF FF FF FF FF FF FF FF FF FF FF FF FF FF FF FF FF FF FF FF FF FF FF FF FF FF FF FF FF FF FF FF FF FF FF FF FF FF FF FF FF FF FF FF FF 00 00 00 00 00 00 00 00 00 00 00 00 00 00 00 00 02 08 FF FF FF FF FF FF FF 	
150	0.02806725	Vkt5Easy2.exe	IOCTL_SERIAL_WAIT_ON_MASK	Npdrv2	SUCCESS		
151	0.00000503	Vkt5Easy2.exe	IOCTL_SERIAL_GET_COMMSTATUS	Npdrv2	SUCCESS		
152	0.03335005	Vkt5Easy2.exe	IRP_MJ_READ	Npdrv2	TIMEOUT	Length 51: FF FF FF FF FF FF FF FF FF FF FF FF FF FF FF FF FF FF FF FF FF FF FF FF FF FF FF FF FF FF FF FF FF FF FF FF FF FF 00 00 00 00 00 00 00 00 00 00 00 EA 72 	
153	0.13895733	Vkt5Easy2.exe	IOCTL_SERIAL_PURGE	Npdrv2	SUCCESS	Purge: TXCLEAR 	
154	0.81496643	Vkt5Easy2.exe	IOCTL_SERIAL_WAIT_ON_MASK	Npdrv2	SUCCESS		
155	0.00000307	Vkt5Easy2.exe	IOCTL_SERIAL_SET_DTR	Npdrv2	SUCCESS		
156	0.00000140	Vkt5Easy2.exe	IOCTL_SERIAL_SET_RTS	Npdrv2	SUCCESS		
157	0.00065763	Vkt5Easy2.exe	IRP_MJ_WRITE	Npdrv2	SUCCESS	Length 8: 00 03 10 08 00 FE 40 99 	
158	0.00000587	Vkt5Easy2.exe	IOCTL_SERIAL_GET_COMMSTATUS	Npdrv2	SUCCESS		
159	0.04293618	Vkt5Easy2.exe	IRP_MJ_READ	Npdrv2	TIMEOUT	Length 104: 00 03 FE 00 00 00 00 00 02 08 FF FF FF FF FF FF FF FF FF FF FF FF FF FF FF FF FF FF FF FF FF FF FF FF FF FF FF FF FF FF FF FF FF FF FF FF FF FF FF FF FF FF FF FF FF 00 00 00 00 00 00 00 00 00 00 00 00 00 00 00 00 01 08 FF FF FF FF FF FF FF FF FF FF FF FF FF FF FF FF FF FF FF FF FF FF FF FF FF FF FF FF FF FF FF 	
160	0.07495981	Vkt5Easy2.exe	IOCTL_SERIAL_WAIT_ON_MASK	Npdrv2	SUCCESS		
161	0.00000531	Vkt5Easy2.exe	IOCTL_SERIAL_GET_COMMSTATUS	Npdrv2	SUCCESS		
162	0.03329473	Vkt5Easy2.exe	IRP_MJ_READ	Npdrv2	TIMEOUT	Length 104: FF FF FF FF FF FF FF FF FF FF FF FF FF FF 00 00 00 00 00 00 00 00 00 00 00 00 00 00 00 00 02 08 FF FF FF FF FF FF FF FF FF FF FF FF FF FF FF FF FF FF FF FF FF FF FF FF FF FF FF FF FF FF FF FF FF FF FF FF FF FF FF FF FF FF FF FF FF 00 00 00 00 00 00 00 00 00 00 00 00 00 00 00 00 02 08 FF FF FF FF FF FF FF FF FF 	
163	0.02885031	Vkt5Easy2.exe	IOCTL_SERIAL_WAIT_ON_MASK	Npdrv2	SUCCESS		
164	0.00000503	Vkt5Easy2.exe	IOCTL_SERIAL_GET_COMMSTATUS	Npdrv2	SUCCESS		
165	0.03252620	Vkt5Easy2.exe	IRP_MJ_READ	Npdrv2	TIMEOUT	Length 51: FF FF FF FF FF FF FF FF FF FF FF FF FF FF FF FF FF FF FF FF FF FF FF FF FF FF FF FF FF FF FF FF FF FF FF FF 00 00 00 00 00 00 00 00 00 00 00 00 00 B7 E3 	
166	0.13870282	Vkt5Easy2.exe	IOCTL_SERIAL_PURGE	Npdrv2	SUCCESS	Purge: TXCLEAR 	
167	0.81679878	Vkt5Easy2.exe	IOCTL_SERIAL_WAIT_ON_MASK	Npdrv2	SUCCESS		
168	0.00000363	Vkt5Easy2.exe	IOCTL_SERIAL_SET_DTR	Npdrv2	SUCCESS		
169	0.00000112	Vkt5Easy2.exe	IOCTL_SERIAL_SET_RTS	Npdrv2	SUCCESS		
170	0.00065344	Vkt5Easy2.exe	IRP_MJ_WRITE	Npdrv2	SUCCESS	Length 8: 00 03 10 09 00 FE 11 59 	
171	0.00000531	Vkt5Easy2.exe	IOCTL_SERIAL_GET_COMMSTATUS	Npdrv2	SUCCESS		
172	0.04110439	Vkt5Easy2.exe	IRP_MJ_READ	Npdrv2	TIMEOUT	Length 104: 00 03 FE 00 00 00 46 3F F4 00 41 80 00 00 FF FF FF FF FF FF FF FF FF FF FF FF FF FF FF FF 00 00 00 00 FF 46 3F D4 00 41 80 00 00 FF FF FF FF FF FF FF FF FF FF 00 00 00 00 00 00 38 EC 0A 00 00 46 3F 90 00 41 80 00 00 FF FF FF FF FF FF FF FF FF FF FF FF FF FF FF FF 00 00 00 00 FF 46 40 20 00 41 80 00 00 FF FF FF 	
173	0.07640384	Vkt5Easy2.exe	IOCTL_SERIAL_WAIT_ON_MASK	Npdrv2	SUCCESS		
174	0.00000531	Vkt5Easy2.exe	IOCTL_SERIAL_GET_COMMSTATUS	Npdrv2	SUCCESS		
175	0.03143193	Vkt5Easy2.exe	IRP_MJ_READ	Npdrv2	TIMEOUT	Length 104: FF FF FF FF FF FF FF FF FF FF FF FF 00 38 FB E5 CD 00 46 3F C4 00 41 80 00 00 00 00 FF FF FF FF FF FF FF FF FF FF FF FF FF FF 00 00 00 00 FF 46 3F F4 00 41 80 00 00 FF FF FF FF FF FF FF FF FF FF FF FF FF FF FF FF 00 00 00 00 00 46 40 4C 00 41 80 00 00 00 00 00 00 00 00 00 FF FF FF FF FF FF FF FF FF 00 00 00 00 	
176	0.03020943	Vkt5Easy2.exe	IOCTL_SERIAL_WAIT_ON_MASK	Npdrv2	SUCCESS		
177	0.00000531	Vkt5Easy2.exe	IOCTL_SERIAL_GET_COMMSTATUS	Npdrv2	SUCCESS		
178	0.04630728	Vkt5Easy2.exe	IRP_MJ_READ	Npdrv2	TIMEOUT	Length 51: FF 46 3F C4 00 41 80 00 00 FF FF FF FF FF FF FF FF FF FF FF FF FF FF FF FF 00 00 00 00 FF 45 51 B0 00 3C 79 50 CE 00 00 00 00 00 00 00 00 46 51 90 20 75 	
179	0.13837569	Vkt5Easy2.exe	IOCTL_SERIAL_PURGE	Npdrv2	SUCCESS	Purge: TXCLEAR 	
180	0.80687294	Vkt5Easy2.exe	IOCTL_SERIAL_WAIT_ON_MASK	Npdrv2	SUCCESS		
181	0.00000419	Vkt5Easy2.exe	IOCTL_SERIAL_SET_DTR	Npdrv2	SUCCESS		
182	0.00000140	Vkt5Easy2.exe	IOCTL_SERIAL_SET_RTS	Npdrv2	SUCCESS		
183	0.00065288	Vkt5Easy2.exe	IRP_MJ_WRITE	Npdrv2	SUCCESS	Length 8: 00 03 10 0A 00 FE E1 59 	
184	0.00000475	Vkt5Easy2.exe	IOCTL_SERIAL_GET_COMMSTATUS	Npdrv2	SUCCESS		
185	0.03603056	Vkt5Easy2.exe	IRP_MJ_READ	Npdrv2	TIMEOUT	Length 104: 00 03 FE 00 3B 79 5F FA FF FF FF FF 09 45 51 B0 00 3C 79 50 CE FF FF FF FF FF FF FF FF 46 51 90 00 3B 79 5F FA FF FF FF FF 08 45 51 B0 00 3C 79 50 CE FF 00 00 00 00 00 00 00 46 51 90 00 3B 79 5F FA 00 FF FF FF 09 45 51 B0 00 3C 79 50 CE FF FF FF FF FF FF FF FF 46 51 90 00 3B 79 5F FA FF FF FF FF FF 45 51 B0 00 	
186	0.08186068	Vkt5Easy2.exe	IOCTL_SERIAL_WAIT_ON_MASK	Npdrv2	SUCCESS		
187	0.00000559	Vkt5Easy2.exe	IOCTL_SERIAL_GET_COMMSTATUS	Npdrv2	SUCCESS		
188	0.04199333	Vkt5Easy2.exe	IRP_MJ_READ	Npdrv2	TIMEOUT	Length 104: 3C 79 50 CE FF FF FF FF FF FF 00 00 46 51 90 00 3B 79 5F FA 00 00 00 00 09 45 51 B0 00 3C 79 50 CE FF FF FF FF FF FF FF FF 46 51 90 00 3B 79 5F FA FF FF FF FF 09 45 51 B0 00 3C 79 50 CE FF FF FF FF FF FF FF FF 46 51 94 00 3B 79 61 51 00 00 00 00 00 45 51 B0 00 3C 79 4F 3E FF FF FF FF FF FF FF FF 46 51 90 00 3B 	
189	0.02038136	Vkt5Easy2.exe	IOCTL_SERIAL_WAIT_ON_MASK	Npdrv2	SUCCESS		
190	0.00000475	Vkt5Easy2.exe	IOCTL_SERIAL_GET_COMMSTATUS	Npdrv2	SUCCESS		
191	0.04093705	Vkt5Easy2.exe	IRP_MJ_READ	Npdrv2	TIMEOUT	Length 51: 79 5F FA FF FF FF FF FF FF FF FF FF FF FF FF FF FF FF FF FF FF FF FF FF FF FF FF FF FF FF FF FF 00 00 00 00 00 00 00 00 00 00 00 00 00 00 00 00 FF 3F 80 	
192	0.13906125	Vkt5Easy2.exe	IOCTL_SERIAL_PURGE	Npdrv2	SUCCESS	Purge: TXCLEAR 	
193	0.80324818	Vkt5Easy2.exe	IOCTL_SERIAL_WAIT_ON_MASK	Npdrv2	SUCCESS		
194	0.00000279	Vkt5Easy2.exe	IOCTL_SERIAL_SET_DTR	Npdrv2	SUCCESS		
195	0.00000140	Vkt5Easy2.exe	IOCTL_SERIAL_SET_RTS	Npdrv2	SUCCESS		
196	0.00065092	Vkt5Easy2.exe	IRP_MJ_WRITE	Npdrv2	SUCCESS	Length 8: 00 03 10 0B 00 FE B0 99 	
197	0.00000475	Vkt5Easy2.exe	IOCTL_SERIAL_GET_COMMSTATUS	Npdrv2	SUCCESS		
198	0.03804534	Vkt5Easy2.exe	IRP_MJ_READ	Npdrv2	TIMEOUT	Length 104: 00 03 FE FF FF FF FF FF FF FF FF FF FF FF FF FF FF FF FF FF FF FF FF FF FF FF FF FF FF FF FF FF FF 38 00 00 00 00 00 00 00 38 00 00 00 00 00 00 00 00 00 00 00 00 00 00 00 00 00 00 00 00 00 00 00 FF FF FF FF FF FF FF FF FF FF FF FF FF FF FF FF FF FF FF FF FF FF FF FF FF FF FF FF FF FF FF FF FF FF FF FF FF FF FF 	
199	0.07986294	Vkt5Easy2.exe	IOCTL_SERIAL_WAIT_ON_MASK	Npdrv2	SUCCESS		
200	0.00000559	Vkt5Easy2.exe	IOCTL_SERIAL_GET_COMMSTATUS	Npdrv2	SUCCESS		
201	0.04402878	Vkt5Easy2.exe	IRP_MJ_READ	Npdrv2	TIMEOUT	Length 104: FF FF FF FF FF FF FF FF 00 00 00 00 00 00 00 00 00 00 00 00 00 00 00 00 FF FF FF FF FF FF FF FF FF FF FF FF FF FF FF FF FF FF FF FF FF FF 42 C8 00 00 41 08 00 00 42 C8 00 00 00 00 00 00 FF FF FF FF FF FF FF FF FF FF FF FF 42 C8 00 00 FF 00 00 00 00 FF FF FF 00 00 00 00 FF FF FF FF FF FF FF FF FF FF FF FF 42 C8 	
202	0.01803106	Vkt5Easy2.exe	IOCTL_SERIAL_WAIT_ON_MASK	Npdrv2	SUCCESS		
203	0.00000475	Vkt5Easy2.exe	IOCTL_SERIAL_GET_COMMSTATUS	Npdrv2	SUCCESS		
204	0.04328455	Vkt5Easy2.exe	IRP_MJ_READ	Npdrv2	TIMEOUT	Length 51: 00 00 FF FF FF FF FF FF FF FF 00 00 00 00 FF FF FF FF FF FF FF FF FF FF FF FF 42 C8 00 00 00 00 00 00 00 00 00 00 00 00 00 00 40 46 66 66 40 10 00 47 DA 	
205	0.13903303	Vkt5Easy2.exe	IOCTL_SERIAL_PURGE	Npdrv2	SUCCESS	Purge: TXCLEAR 	
206	0.80617369	Vkt5Easy2.exe	IOCTL_SERIAL_WAIT_ON_MASK	Npdrv2	SUCCESS		
207	0.00000335	Vkt5Easy2.exe	IOCTL_SERIAL_SET_DTR	Npdrv2	SUCCESS		
208	0.00000168	Vkt5Easy2.exe	IOCTL_SERIAL_SET_RTS	Npdrv2	SUCCESS		
209	0.00071350	Vkt5Easy2.exe	IRP_MJ_WRITE	Npdrv2	SUCCESS	Length 8: 00 03 10 0C 00 FE 01 58 	
210	0.00000447	Vkt5Easy2.exe	IOCTL_SERIAL_GET_COMMSTATUS	Npdrv2	SUCCESS		
211	0.03600206	Vkt5Easy2.exe	IRP_MJ_READ	Npdrv2	TIMEOUT	Length 104: 00 03 FE 00 FF FF FF FF 42 C8 00 00 40 F0 00 00 42 B5 00 00 00 00 00 00 40 39 99 9A 3F F3 33 34 FF FF FF FF 42 C8 00 00 40 B9 99 9A 41 94 00 00 00 00 00 00 FF FF FF 00 00 00 00 00 00 00 00 FF 42 C8 00 00 FF FF FF FF FF FF FF FF 00 00 00 00 FF FF FF FF FF FF FF FF FF FF FF FF 42 C8 00 00 FF FF FF FF FF FF FF FF 	
212	0.08150505	Vkt5Easy2.exe	IOCTL_SERIAL_WAIT_ON_MASK	Npdrv2	SUCCESS		
213	0.00000391	Vkt5Easy2.exe	IOCTL_SERIAL_GET_COMMSTATUS	Npdrv2	SUCCESS		
214	0.04152371	Vkt5Easy2.exe	IRP_MJ_READ	Npdrv2	TIMEOUT	Length 104: 00 00 00 00 FF FF 00 00 00 00 00 00 00 00 00 00 00 00 00 00 00 00 FF FF FF FF FF FF FF FF FF FF FF FF FF FF FF FF FF FF FF FF FF FF FF FF FF FF FF FF FF FF FF FF FF FF FF FF FF FF FF FF FF FF FF FF FF FF FF 00 00 00 00 00 00 00 00 00 00 00 00 00 00 00 00 FF FF FF FF FF FF FF FF FF FF FF FF FF FF FF FF FF FF FF 	
215	0.02071464	Vkt5Easy2.exe	IOCTL_SERIAL_WAIT_ON_MASK	Npdrv2	SUCCESS		
216	0.00000475	Vkt5Easy2.exe	IOCTL_SERIAL_GET_COMMSTATUS	Npdrv2	SUCCESS		
217	0.04064790	Vkt5Easy2.exe	IRP_MJ_READ	Npdrv2	TIMEOUT	Length 51: FF FF FF FF FF FF FF FF FF FF FF FF FF FF FF FF FF FF FF FF FF FF FF FF FF FF FF FF 00 00 00 00 00 00 00 00 00 00 00 00 00 00 00 00 01 00 01 00 01 C0 FB 	
218	0.13881457	Vkt5Easy2.exe	IOCTL_SERIAL_PURGE	Npdrv2	SUCCESS	Purge: TXCLEAR 	
219	0.80884917	Vkt5Easy2.exe	IOCTL_SERIAL_WAIT_ON_MASK	Npdrv2	SUCCESS		
220	0.00000307	Vkt5Easy2.exe	IOCTL_SERIAL_SET_DTR	Npdrv2	SUCCESS		
221	0.00000112	Vkt5Easy2.exe	IOCTL_SERIAL_SET_RTS	Npdrv2	SUCCESS		
222	0.00065092	Vkt5Easy2.exe	IRP_MJ_WRITE	Npdrv2	SUCCESS	Length 8: 00 03 10 0D 00 FE 50 98 	
223	0.00000475	Vkt5Easy2.exe	IOCTL_SERIAL_GET_COMMSTATUS	Npdrv2	SUCCESS		
224	0.03468122	Vkt5Easy2.exe	IRP_MJ_READ	Npdrv2	TIMEOUT	Length 104: 00 03 FE 00 07 DF 06 02 10 13 1D 00 00 FF FF FF FF FF FF FF FF FF FF FF FF FF FF FF FF FF FF FF FF FF FF FF FF FF FF FF FF FF FF FF FF 00 00 00 00 00 00 00 00 00 00 00 00 00 00 00 00 FF FF FF FF FF FF FF FF FF FF FF FF FF FF FF FF FF FF FF FF FF FF FF FF FF FF FF FF FF FF FF FF FF FF FF FF FF FF FF FF FF FF FF 	
225	0.08394307	Vkt5Easy2.exe	IOCTL_SERIAL_WAIT_ON_MASK	Npdrv2	SUCCESS		
226	0.00000559	Vkt5Easy2.exe	IOCTL_SERIAL_GET_COMMSTATUS	Npdrv2	SUCCESS		
227	0.03993245	Vkt5Easy2.exe	IRP_MJ_READ	Npdrv2	TIMEOUT	Length 104: FF FF FF FF 00 00 00 00 00 00 00 00 00 00 00 00 00 00 00 00 FF FF FF FF FF FF FF FF FF FF FF FF FF FF FF FF FF FF FF FF FF FF FF FF FF FF FF FF FF FF FF FF FF FF FF FF FF FF FF FF FF FF FF FF FF FF FF 00 00 00 00 00 00 00 00 00 00 00 00 00 00 00 00 FF FF FF FF FF FF FF FF FF FF FF FF FF FF FF FF FF FF FF FF FF 	
228	0.02233999	Vkt5Easy2.exe	IOCTL_SERIAL_WAIT_ON_MASK	Npdrv2	SUCCESS		
229	0.00000503	Vkt5Easy2.exe	IOCTL_SERIAL_GET_COMMSTATUS	Npdrv2	SUCCESS		
230	0.03905105	Vkt5Easy2.exe	IRP_MJ_READ	Npdrv2	TIMEOUT	Length 51: FF FF FF FF FF FF FF FF FF FF FF FF FF FF FF FF FF FF FF FF FF FF FF FF FF FF 00 00 00 00 00 00 00 00 00 00 00 00 00 00 00 00 FF FF FF FF FF FF FF CE DA 	
231	0.13850028	Vkt5Easy2.exe	IOCTL_SERIAL_PURGE	Npdrv2	SUCCESS	Purge: TXCLEAR 	
232	0.80945623	Vkt5Easy2.exe	IOCTL_SERIAL_WAIT_ON_MASK	Npdrv2	SUCCESS		
233	0.00000307	Vkt5Easy2.exe	IOCTL_SERIAL_SET_DTR	Npdrv2	SUCCESS		
234	0.00000140	Vkt5Easy2.exe	IOCTL_SERIAL_SET_RTS	Npdrv2	SUCCESS		
235	0.00065176	Vkt5Easy2.exe	IRP_MJ_WRITE	Npdrv2	SUCCESS	Length 8: 00 03 10 0E 00 FE A0 98 	
236	0.00000559	Vkt5Easy2.exe	IOCTL_SERIAL_GET_COMMSTATUS	Npdrv2	SUCCESS		
237	0.03275416	Vkt5Easy2.exe	IRP_MJ_READ	Npdrv2	TIMEOUT	Length 104: 00 03 FE FF FF 7D 02 FF FF FF FF FF FF FF FF FF FF FF FF FF FF FF FF FF FF FF FF FF FF FF FF FF FF FF FF FF FF FF FF FF FF FF FF 00 00 00 00 00 00 00 00 00 00 00 00 00 00 00 00 FF FF FF FF FF FF FF FF FF FF FF FF FF FF FF FF FF FF FF FF FF FF FF FF FF FF FF FF FF FF FF FF FF FF FF FF FF FF FF FF FF FF FF FF FF 	
238	0.08499404	Vkt5Easy2.exe	IOCTL_SERIAL_WAIT_ON_MASK	Npdrv2	SUCCESS		
239	0.00000531	Vkt5Easy2.exe	IOCTL_SERIAL_GET_COMMSTATUS	Npdrv2	SUCCESS		
240	0.03879851	Vkt5Easy2.exe	IRP_MJ_READ	Npdrv2	TIMEOUT	Length 104: FF FF 00 00 00 00 00 00 00 00 00 00 00 00 00 00 00 00 FF FF FF FF FF FF FF FF FF FF FF FF FF FF FF FF FF FF FF FF FF FF FF FF FF FF FF FF FF FF FF FF FF FF FF FF FF FF FF FF FF FF FF FF FF FF FF 00 00 00 00 00 00 00 00 00 00 00 00 00 00 00 00 FF FF FF FF FF FF FF FF FF FF FF FF FF FF FF FF FF FF FF FF FF FF FF 	
241	0.02288810	Vkt5Easy2.exe	IOCTL_SERIAL_WAIT_ON_MASK	Npdrv2	SUCCESS		
242	0.00000503	Vkt5Easy2.exe	IOCTL_SERIAL_GET_COMMSTATUS	Npdrv2	SUCCESS		
243	0.03803556	Vkt5Easy2.exe	IRP_MJ_READ	Npdrv2	TIMEOUT	Length 51: FF FF FF FF FF FF FF FF FF FF FF FF FF FF FF FF FF FF FF FF FF FF FF FF 00 00 00 00 00 00 00 00 00 00 00 00 00 00 00 00 FF FF FF FF FF FF FF FF FF 6D 9D 	
244	0.13909757	Vkt5Easy2.exe	IOCTL_SERIAL_PURGE	Npdrv2	SUCCESS	Purge: TXCLEAR 	
245	0.79443868	Vkt5Easy2.exe	IOCTL_SERIAL_WAIT_ON_MASK	Npdrv2	SUCCESS		
246	0.00000335	Vkt5Easy2.exe	IOCTL_SERIAL_SET_DTR	Npdrv2	SUCCESS		
247	0.00000112	Vkt5Easy2.exe	IOCTL_SERIAL_SET_RTS	Npdrv2	SUCCESS		
248	0.00065064	Vkt5Easy2.exe	IRP_MJ_WRITE	Npdrv2	SUCCESS	Length 8: 00 03 10 0F 00 FE F1 58 	
249	0.00000419	Vkt5Easy2.exe	IOCTL_SERIAL_GET_COMMSTATUS	Npdrv2	SUCCESS		
250	0.03199904	Vkt5Easy2.exe	IRP_MJ_READ	Npdrv2	TIMEOUT	Length 104: 00 03 94 FF FF FF FF FF FF FF FF FF FF FF FF FF FF FF FF FF FF FF FF FF FF FF FF FF FF FF FF FF FF FF FF FF FF FF FF FF FF 00 00 00 00 00 00 00 00 00 00 00 00 00 00 00 00 FF FF FF FF FF FF FF FF FF FF FF FF FF FF FF FF FF FF FF FF FF FF FF FF FF FF FF FF FF FF FF 00 07 DB 04 17 0D 04 3B 00 00 FF FF FF FF FF FF 	
251	0.02779906	Vkt5Easy2.exe	IOCTL_SERIAL_WAIT_ON_MASK	Npdrv2	SUCCESS		
252	0.00000503	Vkt5Easy2.exe	IOCTL_SERIAL_GET_COMMSTATUS	Npdrv2	SUCCESS		
253	0.03342743	Vkt5Easy2.exe	IRP_MJ_READ	Npdrv2	TIMEOUT	Length 49: 00 00 00 00 00 00 00 00 20 20 20 20 20 20 20 20 20 20 20 20 20 20 20 00 00 30 30 30 30 30 30 2F 30 30 30 30 30 30 00 02 02 02 02 02 02 02 02 20 B6 	
254	12.58809458	Vkt5Easy2.exe	IOCTL_SERIAL_WAIT_ON_MASK	Npdrv2	SUCCESS		
255	0.13979989	Vkt5Easy2.exe	IOCTL_SERIAL_PURGE	Npdrv2	SUCCESS	Purge: TXCLEAR 	
256	0.00000335	Vkt5Easy2.exe	IOCTL_SERIAL_SET_DTR	Npdrv2	SUCCESS		
257	0.00000140	Vkt5Easy2.exe	IOCTL_SERIAL_SET_RTS	Npdrv2	SUCCESS		
258	0.00065064	Vkt5Easy2.exe	IRP_MJ_WRITE	Npdrv2	SUCCESS	Length 8: 00 03 00 1C 00 00 85 DD 	-- тепловой ввод 1 текущие данные
259	0.00000503	Vkt5Easy2.exe	IOCTL_SERIAL_GET_COMMSTATUS	Npdrv2	SUCCESS		
260	0.03762880	Vkt5Easy2.exe	IRP_MJ_READ	Npdrv2	TIMEOUT	Length 49: 00 03 2C 41 BA 11 56 40 F0 00 00 00 00 00 00 41 BA 21 71 40 B9 99 9A 00 00 00 00 00 00 00 00 00 80 00 00 00 00 00 00 00 00 00 00 00 00 00 00 8F C3 	
261	0.13910874	Vkt5Easy2.exe	IOCTL_SERIAL_PURGE	Npdrv2	SUCCESS	Purge: TXCLEAR 	
262	0.89305736	Vkt5Easy2.exe	IOCTL_SERIAL_WAIT_ON_MASK	Npdrv2	SUCCESS		
263	0.00000335	Vkt5Easy2.exe	IOCTL_SERIAL_SET_DTR	Npdrv2	SUCCESS		
264	0.00000140	Vkt5Easy2.exe	IOCTL_SERIAL_SET_RTS	Npdrv2	SUCCESS		
265	0.00064924	Vkt5Easy2.exe	IRP_MJ_WRITE	Npdrv2	SUCCESS	Length 8: 00 03 04 01 00 00 14 EB 	 -- нештатка по тепловому вводу
266	0.00000503	Vkt5Easy2.exe	IOCTL_SERIAL_GET_COMMSTATUS	Npdrv2	SUCCESS		
267	0.04314431	Vkt5Easy2.exe	IRP_MJ_READ	Npdrv2	TIMEOUT	Length 47: 00 03 2A 00 00 00 00 00 00 00 00 00 00 00 00 00 57 00 00 00 00 00 00 00 00 00 00 00 00 00 00 00 00 00 67 00 00 00 00 00 00 00 00 00 00 1B 94 	
268	0.13911628	Vkt5Easy2.exe	IOCTL_SERIAL_PURGE	Npdrv2	SUCCESS	Purge: TXCLEAR 	
269	0.69415889	Vkt5Easy2.exe	IOCTL_SERIAL_WAIT_ON_MASK	Npdrv2	SUCCESS		
270	0.00000391	Vkt5Easy2.exe	IOCTL_SERIAL_SET_DTR	Npdrv2	SUCCESS		
271	0.00000140	Vkt5Easy2.exe	IOCTL_SERIAL_SET_RTS	Npdrv2	SUCCESS		
272	0.00065344	Vkt5Easy2.exe	IRP_MJ_WRITE	Npdrv2	SUCCESS	Length 8: 00 03 00 38 00 00 C5 D6 	 -- тепловой ввод 2
273	0.00000531	Vkt5Easy2.exe	IOCTL_SERIAL_GET_COMMSTATUS	Npdrv2	SUCCESS		
274	0.03874794	Vkt5Easy2.exe	IRP_MJ_READ	Npdrv2	TIMEOUT	Length 37: 00 03 20 00 00 00 00 00 00 00 00 00 00 00 00 00 00 00 00 00 00 00 00 00 00 00 00 00 00 00 00 00 00 00 00 BE BA 	
275	0.13916908	Vkt5Easy2.exe	IOCTL_SERIAL_PURGE	Npdrv2	SUCCESS	Purge: TXCLEAR 	
276	0.70288933	Vkt5Easy2.exe	IOCTL_SERIAL_WAIT_ON_MASK	Npdrv2	SUCCESS		
277	0.00000363	Vkt5Easy2.exe	IOCTL_SERIAL_SET_DTR	Npdrv2	SUCCESS		
278	0.00000112	Vkt5Easy2.exe	IOCTL_SERIAL_SET_RTS	Npdrv2	SUCCESS		
279	0.00071964	Vkt5Easy2.exe	IRP_MJ_WRITE	Npdrv2	SUCCESS	Length 8: 00 03 04 02 00 00 E4 EB 	 -- нештатка по тепловому вводу 2
280	0.00000475	Vkt5Easy2.exe	IOCTL_SERIAL_GET_COMMSTATUS	Npdrv2	SUCCESS		
281	0.04581225	Vkt5Easy2.exe	IRP_MJ_READ	Npdrv2	TIMEOUT	Length 29: 00 03 18 00 00 00 00 00 00 00 00 00 00 00 00 00 00 00 00 00 00 00 00 00 00 00 00 92 76 	
282	0.13924898	Vkt5Easy2.exe	IOCTL_SERIAL_PURGE	Npdrv2	SUCCESS	Purge: TXCLEAR 	
283	0.63690776	Vkt5Easy2.exe	IOCTL_SERIAL_WAIT_ON_MASK	Npdrv2	SUCCESS		
284	0.00000363	Vkt5Easy2.exe	IOCTL_SERIAL_SET_DTR	Npdrv2	SUCCESS		
285	0.00000168	Vkt5Easy2.exe	IOCTL_SERIAL_SET_RTS	Npdrv2	SUCCESS		
286	0.00065148	Vkt5Easy2.exe	IRP_MJ_WRITE	Npdrv2	SUCCESS	Length 8: 00 03 0B 00 00 0A C6 38 	 -- текущая дата
287	0.00000503	Vkt5Easy2.exe	IOCTL_SERIAL_GET_COMMSTATUS	Npdrv2	SUCCESS		
288	0.03362969	Vkt5Easy2.exe	IRP_MJ_READ	Npdrv2	TIMEOUT	Length 15: 00 03 0A 07 DF 00 06 00 02 00 10 00 1E D5 D5 	
289	0.13911545	Vkt5Easy2.exe	IOCTL_SERIAL_PURGE	Npdrv2	SUCCESS	Purge: TXCLEAR 	
290	0.84670566	Vkt5Easy2.exe	IOCTL_SERIAL_WAIT_ON_MASK	Npdrv2	SUCCESS		
291	0.00000335	Vkt5Easy2.exe	IOCTL_SERIAL_SET_DTR	Npdrv2	SUCCESS		
292	0.00000140	Vkt5Easy2.exe	IOCTL_SERIAL_SET_RTS	Npdrv2	SUCCESS		
293	0.00065204	Vkt5Easy2.exe	IRP_MJ_WRITE	Npdrv2	SUCCESS	Length 8: 00 03 80 1C 00 00 AC 1D 	 -- итоговые по 1  тепловому вводу
294	0.00000447	Vkt5Easy2.exe	IOCTL_SERIAL_GET_COMMSTATUS	Npdrv2	SUCCESS		
295	0.04263838	Vkt5Easy2.exe	IRP_MJ_READ	Npdrv2	TIMEOUT	Length 77: 00 03 48 41 C1 47 AE 40 F0 00 00 BF B7 9B 3A 60 00 00 05 41 BE B8 52 40 B9 99 9A BF B7 9B 3A 60 00 00 05 00 00 00 00 00 00 00 00 38 82 63 3E C3 40 00 3F 38 72 63 3E C3 40 00 3E 38 72 63 3E C3 40 00 3E 38 00 00 00 00 00 00 00 B7 BB 	
296	0.13904588	Vkt5Easy2.exe	IOCTL_SERIAL_PURGE	Npdrv2	SUCCESS	Purge: TXCLEAR 	
297	0.77564579	Vkt5Easy2.exe	IOCTL_SERIAL_WAIT_ON_MASK	Npdrv2	SUCCESS		
298	0.00000307	Vkt5Easy2.exe	IOCTL_SERIAL_SET_DTR	Npdrv2	SUCCESS		
299	0.00000112	Vkt5Easy2.exe	IOCTL_SERIAL_SET_RTS	Npdrv2	SUCCESS		
300	0.00065176	Vkt5Easy2.exe	IRP_MJ_WRITE	Npdrv2	SUCCESS	Length 8: 00 03 80 38 00 00 EC 16 	 -- итоговые по 2 тепловому вводу
301	0.00000447	Vkt5Easy2.exe	IOCTL_SERIAL_GET_COMMSTATUS	Npdrv2	SUCCESS		
302	0.03557212	Vkt5Easy2.exe	IRP_MJ_READ	Npdrv2	TIMEOUT	Length 61: 00 03 38 00 00 00 00 00 00 00 00 38 00 00 00 00 00 00 00 00 00 00 00 00 00 00 00 00 00 00 00 00 00 00 00 00 00 00 00 00 00 00 00 00 00 00 00 00 00 00 00 38 00 00 00 00 00 00 00 F5 A1 	
303	0.13904505	Vkt5Easy2.exe	IOCTL_SERIAL_PURGE	Npdrv2	SUCCESS	Purge: TXCLEAR 	
304	0.64033082	Vkt5Easy2.exe	IOCTL_SERIAL_WAIT_ON_MASK	Npdrv2	SUCCESS		
305	0.00000363	Vkt5Easy2.exe	IOCTL_SERIAL_SET_DTR	Npdrv2	SUCCESS		
306	0.00000140	Vkt5Easy2.exe	IOCTL_SERIAL_SET_RTS	Npdrv2	SUCCESS		
307	0.00065288	Vkt5Easy2.exe	IRP_MJ_WRITE	Npdrv2	SUCCESS	Length 8: 00 03 0B 00 00 0A C6 38 	 --  текущая дата 
308	0.00000531	Vkt5Easy2.exe	IOCTL_SERIAL_GET_COMMSTATUS	Npdrv2	SUCCESS		
309	0.04588237	Vkt5Easy2.exe	IRP_MJ_READ	Npdrv2	TIMEOUT	Length 15: 00 03 0A 07 DF 00 06 00 02 00 10 00 1E D5 D5 	
310	4.90252728	Vkt5Easy2.exe	IOCTL_SERIAL_WAIT_ON_MASK	Npdrv2	SUCCESS		
311	0.13980408	Vkt5Easy2.exe	IOCTL_SERIAL_PURGE	Npdrv2	SUCCESS	Purge: TXCLEAR 	
312	0.00000335	Vkt5Easy2.exe	IOCTL_SERIAL_SET_DTR	Npdrv2	SUCCESS		
313	0.00000168	Vkt5Easy2.exe	IOCTL_SERIAL_SET_RTS	Npdrv2	SUCCESS		
314	0.00070093	Vkt5Easy2.exe	IRP_MJ_WRITE	Npdrv2	SUCCESS	Length 8: 00 03 00 1C 00 00 85 DD 	 -- текущие по 1 ТВ
315	0.00000559	Vkt5Easy2.exe	IOCTL_SERIAL_GET_COMMSTATUS	Npdrv2	SUCCESS		
316	0.03393252	Vkt5Easy2.exe	IRP_MJ_READ	Npdrv2	TIMEOUT	Length 49: 00 03 2C 41 BA 01 3C 40 F0 00 00 00 00 00 00 41 BA 11 56 40 B9 99 9A 00 00 00 00 00 00 00 00 00 80 00 00 00 00 00 00 00 00 00 00 00 00 00 00 7C 62 	
317	0.13849386	Vkt5Easy2.exe	IOCTL_SERIAL_PURGE	Npdrv2	SUCCESS	Purge: TXCLEAR 	
318	0.83220745	Vkt5Easy2.exe	IOCTL_SERIAL_WAIT_ON_MASK	Npdrv2	SUCCESS		
319	0.00000335	Vkt5Easy2.exe	IOCTL_SERIAL_SET_DTR	Npdrv2	SUCCESS		
320	0.00000140	Vkt5Easy2.exe	IOCTL_SERIAL_SET_RTS	Npdrv2	SUCCESS		
321	0.00065148	Vkt5Easy2.exe	IRP_MJ_WRITE	Npdrv2	SUCCESS	Length 8: 00 03 04 01 00 00 14 EB 	 -- нештатка по 1 ТВ
322	0.00000475	Vkt5Easy2.exe	IOCTL_SERIAL_GET_COMMSTATUS	Npdrv2	SUCCESS		
323	0.04171256	Vkt5Easy2.exe	IRP_MJ_READ	Npdrv2	TIMEOUT	Length 47: 00 03 2A 00 00 00 00 00 00 00 00 00 00 00 00 00 57 00 00 00 00 00 00 00 00 00 00 00 00 00 00 00 00 00 67 00 00 00 00 00 00 00 00 00 00 1B 94 	
324	0.13912187	Vkt5Easy2.exe	IOCTL_SERIAL_PURGE	Npdrv2	SUCCESS	Purge: TXCLEAR 	
325	0.69555209	Vkt5Easy2.exe	IOCTL_SERIAL_WAIT_ON_MASK	Npdrv2	SUCCESS		
326	0.00000335	Vkt5Easy2.exe	IOCTL_SERIAL_SET_DTR	Npdrv2	SUCCESS		
327	0.00000168	Vkt5Easy2.exe	IOCTL_SERIAL_SET_RTS	Npdrv2	SUCCESS		
328	0.00065707	Vkt5Easy2.exe	IRP_MJ_WRITE	Npdrv2	SUCCESS	Length 8: 00 03 00 38 00 00 C5 D6 	
329	0.00000447	Vkt5Easy2.exe	IOCTL_SERIAL_GET_COMMSTATUS	Npdrv2	SUCCESS		
330	0.03771569	Vkt5Easy2.exe	IRP_MJ_READ	Npdrv2	TIMEOUT	Length 37: 00 03 20 00 00 00 00 00 00 00 00 00 00 00 00 00 00 00 00 00 00 00 00 00 00 00 00 00 00 00 00 00 00 00 00 BE BA 	
331	0.13867126	Vkt5Easy2.exe	IOCTL_SERIAL_PURGE	Npdrv2	SUCCESS	Purge: TXCLEAR 	
332	0.70389142	Vkt5Easy2.exe	IOCTL_SERIAL_WAIT_ON_MASK	Npdrv2	SUCCESS		
333	0.00000335	Vkt5Easy2.exe	IOCTL_SERIAL_SET_DTR	Npdrv2	SUCCESS		
334	0.00000140	Vkt5Easy2.exe	IOCTL_SERIAL_SET_RTS	Npdrv2	SUCCESS		
335	0.00065008	Vkt5Easy2.exe	IRP_MJ_WRITE	Npdrv2	SUCCESS	Length 8: 00 03 04 02 00 00 E4 EB 	
336	0.00000531	Vkt5Easy2.exe	IOCTL_SERIAL_GET_COMMSTATUS	Npdrv2	SUCCESS		
337	0.04498589	Vkt5Easy2.exe	IRP_MJ_READ	Npdrv2	TIMEOUT	Length 29: 00 03 18 00 00 00 00 00 00 00 00 00 00 00 00 00 00 00 00 00 00 00 00 00 00 00 00 92 76 	
338	0.13878524	Vkt5Easy2.exe	IOCTL_SERIAL_PURGE	Npdrv2	SUCCESS	Purge: TXCLEAR 	
339	0.63837974	Vkt5Easy2.exe	IOCTL_SERIAL_WAIT_ON_MASK	Npdrv2	SUCCESS		
340	0.00000307	Vkt5Easy2.exe	IOCTL_SERIAL_SET_DTR	Npdrv2	SUCCESS		
341	0.00000112	Vkt5Easy2.exe	IOCTL_SERIAL_SET_RTS	Npdrv2	SUCCESS		
342	0.00065399	Vkt5Easy2.exe	IRP_MJ_WRITE	Npdrv2	SUCCESS	Length 8: 00 03 0B 00 00 0A C6 38 	
343	0.00000475	Vkt5Easy2.exe	IOCTL_SERIAL_GET_COMMSTATUS	Npdrv2	SUCCESS		
344	0.03239825	Vkt5Easy2.exe	IRP_MJ_READ	Npdrv2	TIMEOUT	Length 15: 00 03 0A 07 DF 00 06 00 02 00 10 00 1E D5 D5 	
345	0.13912075	Vkt5Easy2.exe	IOCTL_SERIAL_PURGE	Npdrv2	SUCCESS	Purge: TXCLEAR 	
346	0.89114846	Vkt5Easy2.exe	IOCTL_SERIAL_WAIT_ON_MASK	Npdrv2	SUCCESS		
347	0.00000335	Vkt5Easy2.exe	IOCTL_SERIAL_SET_DTR	Npdrv2	SUCCESS		
348	0.00000140	Vkt5Easy2.exe	IOCTL_SERIAL_SET_RTS	Npdrv2	SUCCESS		
349	0.00065539	Vkt5Easy2.exe	IRP_MJ_WRITE	Npdrv2	SUCCESS	Length 8: 00 03 80 1C 00 00 AC 1D 	
350	0.00000475	Vkt5Easy2.exe	IOCTL_SERIAL_GET_COMMSTATUS	Npdrv2	SUCCESS		
351	0.04524709	Vkt5Easy2.exe	IRP_MJ_READ	Npdrv2	TIMEOUT	Length 77: 00 03 48 41 C1 1E B8 40 F0 00 00 BF B7 9B 3A 60 00 00 05 41 BE 8F 5C 40 B9 99 9A BF B7 9B 3A 60 00 00 05 00 00 00 00 00 00 00 00 38 82 63 3E C3 40 00 3F 38 72 63 3E C3 40 00 3E 38 72 63 3E C3 40 00 3E 38 00 00 00 00 00 00 00 E6 60 	
352	0.13862432	Vkt5Easy2.exe	IOCTL_SERIAL_PURGE	Npdrv2	SUCCESS	Purge: TXCLEAR 	
353	0.73047357	Vkt5Easy2.exe	IOCTL_SERIAL_WAIT_ON_MASK	Npdrv2	SUCCESS		
354	0.00000335	Vkt5Easy2.exe	IOCTL_SERIAL_SET_DTR	Npdrv2	SUCCESS		
355	0.00000140	Vkt5Easy2.exe	IOCTL_SERIAL_SET_RTS	Npdrv2	SUCCESS		
356	0.00065036	Vkt5Easy2.exe	IRP_MJ_WRITE	Npdrv2	SUCCESS	Length 8: 00 03 80 38 00 00 EC 16 	
357	0.00000531	Vkt5Easy2.exe	IOCTL_SERIAL_GET_COMMSTATUS	Npdrv2	SUCCESS		
358	0.03403812	Vkt5Easy2.exe	IRP_MJ_READ	Npdrv2	TIMEOUT	Length 61: 00 03 38 00 00 00 00 00 00 00 00 38 00 00 00 00 00 00 00 00 00 00 00 00 00 00 00 00 00 00 00 00 00 00 00 00 00 00 00 00 00 00 00 00 00 00 00 00 00 00 00 38 00 00 00 00 00 00 00 F5 A1 	
359	0.13892660	Vkt5Easy2.exe	IOCTL_SERIAL_PURGE	Npdrv2	SUCCESS	Purge: TXCLEAR 	
360	0.64204501	Vkt5Easy2.exe	IOCTL_SERIAL_WAIT_ON_MASK	Npdrv2	SUCCESS		
361	0.00000307	Vkt5Easy2.exe	IOCTL_SERIAL_SET_DTR	Npdrv2	SUCCESS		
362	0.00000140	Vkt5Easy2.exe	IOCTL_SERIAL_SET_RTS	Npdrv2	SUCCESS		
363	0.00065371	Vkt5Easy2.exe	IRP_MJ_WRITE	Npdrv2	SUCCESS	Length 8: 00 03 0B 00 00 0A C6 38 	
364	0.00000531	Vkt5Easy2.exe	IOCTL_SERIAL_GET_COMMSTATUS	Npdrv2	SUCCESS		
365	0.04436122	Vkt5Easy2.exe	IRP_MJ_READ	Npdrv2	TIMEOUT	Length 15: 00 03 0A 07 DF 00 06 00 02 00 10 00 1F 14 15 	
366	0.13914478	Vkt5Easy2.exe	IOCTL_SERIAL_PURGE	Npdrv2	SUCCESS	Purge: TXCLEAR 	
367	0.65919775	Vkt5Easy2.exe	IOCTL_SERIAL_WAIT_ON_MASK	Npdrv2	SUCCESS		
368	0.00000363	Vkt5Easy2.exe	IOCTL_SERIAL_SET_DTR	Npdrv2	SUCCESS		
369	0.00000140	Vkt5Easy2.exe	IOCTL_SERIAL_SET_RTS	Npdrv2	SUCCESS		
370	0.00065344	Vkt5Easy2.exe	IRP_MJ_WRITE	Npdrv2	SUCCESS	Length 8: 00 03 0B 00 00 0A C6 38 	
371	0.00000587	Vkt5Easy2.exe	IOCTL_SERIAL_GET_COMMSTATUS	Npdrv2	SUCCESS		
372	0.04282192	Vkt5Easy2.exe	IRP_MJ_READ	Npdrv2	TIMEOUT	Length 15: 00 03 0A 07 DF 00 06 00 02 00 10 00 1F 14 15 	
373	0.13912522	Vkt5Easy2.exe	IOCTL_SERIAL_PURGE	Npdrv2	SUCCESS	Purge: TXCLEAR 	
374	0.83771680	Vkt5Easy2.exe	IOCTL_SERIAL_WAIT_ON_MASK	Npdrv2	SUCCESS		
375	0.00000279	Vkt5Easy2.exe	IOCTL_SERIAL_SET_DTR	Npdrv2	SUCCESS		
376	0.00000112	Vkt5Easy2.exe	IOCTL_SERIAL_SET_RTS	Npdrv2	SUCCESS		
377	0.00065623	Vkt5Easy2.exe	IRP_MJ_WRITE	Npdrv2	SUCCESS	Length 8: 00 03 80 1C 00 00 AC 1D 	
378	0.00000475	Vkt5Easy2.exe	IOCTL_SERIAL_GET_COMMSTATUS	Npdrv2	SUCCESS		
379	0.03612414	Vkt5Easy2.exe	IRP_MJ_READ	Npdrv2	TIMEOUT	Length 77: 00 03 48 41 C1 1E B8 40 F0 00 00 BF B7 9B 3A 60 00 00 05 41 BE 8F 5C 40 B9 99 9A BF B7 9B 3A 60 00 00 05 00 00 00 00 00 00 00 00 38 82 63 3E C3 40 00 3F 38 72 63 3E C3 40 00 3E 38 72 63 3E C3 40 00 3E 38 00 00 00 00 00 00 00 E6 60 	
380	0.13900482	Vkt5Easy2.exe	IOCTL_SERIAL_PURGE	Npdrv2	SUCCESS	Purge: TXCLEAR 	
381	0.71651565	Vkt5Easy2.exe	IOCTL_SERIAL_WAIT_ON_MASK	Npdrv2	SUCCESS		
382	0.00000335	Vkt5Easy2.exe	IOCTL_SERIAL_SET_DTR	Npdrv2	SUCCESS		
383	0.00000140	Vkt5Easy2.exe	IOCTL_SERIAL_SET_RTS	Npdrv2	SUCCESS		
384	0.00065120	Vkt5Easy2.exe	IRP_MJ_WRITE	Npdrv2	SUCCESS	Length 8: 00 03 80 38 00 00 EC 16 	
385	0.00000503	Vkt5Easy2.exe	IOCTL_SERIAL_GET_COMMSTATUS	Npdrv2	SUCCESS		
386	0.03258207	Vkt5Easy2.exe	IRP_MJ_READ	Npdrv2	TIMEOUT	Length 61: 00 03 38 00 00 00 00 00 00 00 00 38 00 00 00 00 00 00 00 00 00 00 00 00 00 00 00 00 00 00 00 00 00 00 00 00 00 00 00 00 00 00 00 00 00 00 00 00 00 00 00 38 00 00 00 00 00 00 00 F5 A1 	
387	0.13883245	Vkt5Easy2.exe	IOCTL_SERIAL_PURGE	Npdrv2	SUCCESS	Purge: TXCLEAR 	
388	0.64319348	Vkt5Easy2.exe	IOCTL_SERIAL_WAIT_ON_MASK	Npdrv2	SUCCESS		
389	0.00000335	Vkt5Easy2.exe	IOCTL_SERIAL_SET_DTR	Npdrv2	SUCCESS		
390	0.00000196	Vkt5Easy2.exe	IOCTL_SERIAL_SET_RTS	Npdrv2	SUCCESS		
391	0.00065567	Vkt5Easy2.exe	IRP_MJ_WRITE	Npdrv2	SUCCESS	Length 8: 00 03 0B 00 00 0A C6 38 	
392	0.00000531	Vkt5Easy2.exe	IOCTL_SERIAL_GET_COMMSTATUS	Npdrv2	SUCCESS		
393	0.04320382	Vkt5Easy2.exe	IRP_MJ_READ	Npdrv2	TIMEOUT	Length 15: 00 03 0A 07 DF 00 06 00 02 00 10 00 1F 14 15 	
394	0.13289426	Vkt5Easy2.exe	IOCTL_SERIAL_PURGE	Npdrv2	SUCCESS	Purge: TXCLEAR 	
395	0.90714742	Vkt5Easy2.exe	IOCTL_SERIAL_WAIT_ON_MASK	Npdrv2	SUCCESS		
396	0.00000335	Vkt5Easy2.exe	IOCTL_SERIAL_SET_DTR	Npdrv2	SUCCESS		
397	0.00000112	Vkt5Easy2.exe	IOCTL_SERIAL_SET_RTS	Npdrv2	SUCCESS		
398	0.00065427	Vkt5Easy2.exe	IRP_MJ_WRITE	Npdrv2	SUCCESS	Length 8: 00 03 00 1C 00 00 85 DD 	
399	0.00000447	Vkt5Easy2.exe	IOCTL_SERIAL_GET_COMMSTATUS	Npdrv2	SUCCESS		
400	0.04474479	Vkt5Easy2.exe	IRP_MJ_READ	Npdrv2	TIMEOUT	Length 49: 00 03 2C 41 BA 01 3C 40 F0 00 00 00 00 00 00 41 BA 11 56 40 B9 99 9A 00 00 00 00 00 00 00 00 00 80 00 00 00 00 00 00 00 00 00 00 00 00 00 00 7C 62 	
401	0.13901907	Vkt5Easy2.exe	IOCTL_SERIAL_PURGE	Npdrv2	SUCCESS	Purge: TXCLEAR 	
402	0.88718929	Vkt5Easy2.exe	IOCTL_SERIAL_WAIT_ON_MASK	Npdrv2	SUCCESS		
403	0.00000391	Vkt5Easy2.exe	IOCTL_SERIAL_SET_DTR	Npdrv2	SUCCESS		
404	0.00000391	Vkt5Easy2.exe	IOCTL_SERIAL_SET_RTS	Npdrv2	SUCCESS		
405	0.00065148	Vkt5Easy2.exe	IRP_MJ_WRITE	Npdrv2	SUCCESS	Length 8: 00 03 04 01 00 00 14 EB 	
406	0.00000531	Vkt5Easy2.exe	IOCTL_SERIAL_GET_COMMSTATUS	Npdrv2	SUCCESS		
407	0.03359002	Vkt5Easy2.exe	IRP_MJ_READ	Npdrv2	TIMEOUT	Length 47: 00 03 2A 00 00 00 00 00 00 00 00 00 00 00 00 00 57 00 00 00 00 00 00 00 00 00 00 00 00 00 00 00 00 00 67 00 00 00 00 00 00 00 00 00 00 1B 94 	
408	0.13912411	Vkt5Easy2.exe	IOCTL_SERIAL_PURGE	Npdrv2	SUCCESS	Purge: TXCLEAR 	
409	0.70429175	Vkt5Easy2.exe	IOCTL_SERIAL_WAIT_ON_MASK	Npdrv2	SUCCESS		
410	0.00000307	Vkt5Easy2.exe	IOCTL_SERIAL_SET_DTR	Npdrv2	SUCCESS		
411	0.00000168	Vkt5Easy2.exe	IOCTL_SERIAL_SET_RTS	Npdrv2	SUCCESS		
412	0.00065483	Vkt5Easy2.exe	IRP_MJ_WRITE	Npdrv2	SUCCESS	Length 8: 00 03 00 38 00 00 C5 D6 	
413	0.00000531	Vkt5Easy2.exe	IOCTL_SERIAL_GET_COMMSTATUS	Npdrv2	SUCCESS		
414	0.04460483	Vkt5Easy2.exe	IRP_MJ_READ	Npdrv2	TIMEOUT	Length 37: 00 03 20 00 00 00 00 00 00 00 00 00 00 00 00 00 00 00 00 00 00 00 00 00 00 00 00 00 00 00 00 00 00 00 00 BE BA 	
415	0.13913137	Vkt5Easy2.exe	IOCTL_SERIAL_PURGE	Npdrv2	SUCCESS	Purge: TXCLEAR 	
416	0.69679051	Vkt5Easy2.exe	IOCTL_SERIAL_WAIT_ON_MASK	Npdrv2	SUCCESS		
417	0.00000363	Vkt5Easy2.exe	IOCTL_SERIAL_SET_DTR	Npdrv2	SUCCESS		
418	0.00000140	Vkt5Easy2.exe	IOCTL_SERIAL_SET_RTS	Npdrv2	SUCCESS		
419	0.00065344	Vkt5Easy2.exe	IRP_MJ_WRITE	Npdrv2	SUCCESS	Length 8: 00 03 04 02 00 00 E4 EB 	
420	0.00000475	Vkt5Easy2.exe	IOCTL_SERIAL_GET_COMMSTATUS	Npdrv2	SUCCESS		
421	0.03648313	Vkt5Easy2.exe	IRP_MJ_READ	Npdrv2	TIMEOUT	Length 29: 00 03 18 00 00 00 00 00 00 00 00 00 00 00 00 00 00 00 00 00 00 00 00 00 00 00 00 92 76 	
422	0.13877909	Vkt5Easy2.exe	IOCTL_SERIAL_PURGE	Npdrv2	SUCCESS	Purge: TXCLEAR 	
423	0.64754263	Vkt5Easy2.exe	IOCTL_SERIAL_WAIT_ON_MASK	Npdrv2	SUCCESS		
424	0.00000335	Vkt5Easy2.exe	IOCTL_SERIAL_SET_DTR	Npdrv2	SUCCESS		
425	0.00000196	Vkt5Easy2.exe	IOCTL_SERIAL_SET_RTS	Npdrv2	SUCCESS		
426	0.00065511	Vkt5Easy2.exe	IRP_MJ_WRITE	Npdrv2	SUCCESS	Length 8: 00 03 0B 00 00 0A C6 38 	
427	0.00000475	Vkt5Easy2.exe	IOCTL_SERIAL_GET_COMMSTATUS	Npdrv2	SUCCESS		
428	0.03897674	Vkt5Easy2.exe	IRP_MJ_READ	Npdrv2	TIMEOUT	Length 15: 00 03 0A 07 DF 00 06 00 02 00 10 00 1F 14 15 	
429	0.13903862	Vkt5Easy2.exe	IOCTL_SERIAL_PURGE	Npdrv2	SUCCESS	Purge: TXCLEAR 	
430	0.84135945	Vkt5Easy2.exe	IOCTL_SERIAL_WAIT_ON_MASK	Npdrv2	SUCCESS		
431	0.00000307	Vkt5Easy2.exe	IOCTL_SERIAL_SET_DTR	Npdrv2	SUCCESS		
432	0.00000140	Vkt5Easy2.exe	IOCTL_SERIAL_SET_RTS	Npdrv2	SUCCESS		
433	0.00073333	Vkt5Easy2.exe	IRP_MJ_WRITE	Npdrv2	SUCCESS	Length 8: 00 03 80 1C 00 00 AC 1D 	
434	0.00000475	Vkt5Easy2.exe	IOCTL_SERIAL_GET_COMMSTATUS	Npdrv2	SUCCESS		
435	0.03215073	Vkt5Easy2.exe	IRP_MJ_READ	Npdrv2	TIMEOUT	Length 77: 00 03 48 41 C1 1E B8 40 F0 00 00 BF B7 9B 3A 60 00 00 05 41 BE 8F 5C 40 B9 99 9A BF B7 9B 3A 60 00 00 05 00 00 00 00 00 00 00 00 38 82 63 3E C3 40 00 3F 38 72 63 3E C3 40 00 3E 38 72 63 3E C3 40 00 3E 38 00 00 00 00 00 00 00 E6 60 	
436	0.13898079	Vkt5Easy2.exe	IOCTL_SERIAL_PURGE	Npdrv2	SUCCESS	Purge: TXCLEAR 	
437	0.72005241	Vkt5Easy2.exe	IOCTL_SERIAL_WAIT_ON_MASK	Npdrv2	SUCCESS		
438	0.00000335	Vkt5Easy2.exe	IOCTL_SERIAL_SET_DTR	Npdrv2	SUCCESS		
439	0.00000140	Vkt5Easy2.exe	IOCTL_SERIAL_SET_RTS	Npdrv2	SUCCESS		
440	0.00065651	Vkt5Easy2.exe	IRP_MJ_WRITE	Npdrv2	SUCCESS	Length 8: 00 03 80 38 00 00 EC 16 	
441	0.00000475	Vkt5Easy2.exe	IOCTL_SERIAL_GET_COMMSTATUS	Npdrv2	SUCCESS		
442	0.04445649	Vkt5Easy2.exe	IRP_MJ_READ	Npdrv2	TIMEOUT	Length 61: 00 03 38 00 00 00 00 00 00 00 00 38 00 00 00 00 00 00 00 00 00 00 00 00 00 00 00 00 00 00 00 00 00 00 00 00 00 00 00 00 00 00 00 00 00 00 00 00 00 00 00 38 00 00 00 00 00 00 00 F5 A1 	
443	0.13909030	Vkt5Easy2.exe	IOCTL_SERIAL_PURGE	Npdrv2	SUCCESS	Purge: TXCLEAR 	
444	0.63157357	Vkt5Easy2.exe	IOCTL_SERIAL_WAIT_ON_MASK	Npdrv2	SUCCESS		
445	0.00000363	Vkt5Easy2.exe	IOCTL_SERIAL_SET_DTR	Npdrv2	SUCCESS		
446	0.00000168	Vkt5Easy2.exe	IOCTL_SERIAL_SET_RTS	Npdrv2	SUCCESS		
447	0.00065288	Vkt5Easy2.exe	IRP_MJ_WRITE	Npdrv2	SUCCESS	Length 8: 00 03 0B 00 00 0A C6 38 	
448	0.00000559	Vkt5Easy2.exe	IOCTL_SERIAL_GET_COMMSTATUS	Npdrv2	SUCCESS		
449	0.03913514	Vkt5Easy2.exe	IRP_MJ_READ	Npdrv2	TIMEOUT	Length 15: 00 03 0A 07 DF 00 06 00 02 00 10 00 1F 14 15 	
450	11.68302284	Vkt5Easy2.exe	IOCTL_SERIAL_WAIT_ON_MASK	Npdrv2	SUCCESS		
451	0.13954734	Vkt5Easy2.exe	IOCTL_SERIAL_PURGE	Npdrv2	SUCCESS	Purge: TXCLEAR 	
452	0.00000335	Vkt5Easy2.exe	IOCTL_SERIAL_SET_DTR	Npdrv2	SUCCESS		
453	0.00000140	Vkt5Easy2.exe	IOCTL_SERIAL_SET_RTS	Npdrv2	SUCCESS		
454	0.00065204	Vkt5Easy2.exe	IRP_MJ_WRITE	Npdrv2	SUCCESS	Length 8: 00 03 15 00 00 04 41 D4 	
455	0.00000475	Vkt5Easy2.exe	IOCTL_SERIAL_GET_COMMSTATUS	Npdrv2	SUCCESS		
456	0.03534974	Vkt5Easy2.exe	IRP_MJ_READ	Npdrv2	TIMEOUT	Length 21: 00 03 10 FF FF FF FF FF FF FF FF FF FF FF 00 00 00 00 00 8C 55 	
457	0.13919870	Vkt5Easy2.exe	IOCTL_SERIAL_PURGE	Npdrv2	SUCCESS	Purge: TXCLEAR 	
458	0.68365672	Vkt5Easy2.exe	IOCTL_SERIAL_WAIT_ON_MASK	Npdrv2	SUCCESS		
459	0.00000335	Vkt5Easy2.exe	IOCTL_SERIAL_SET_DTR	Npdrv2	SUCCESS		
460	0.00000140	Vkt5Easy2.exe	IOCTL_SERIAL_SET_RTS	Npdrv2	SUCCESS		
461	0.00065539	Vkt5Easy2.exe	IRP_MJ_WRITE	Npdrv2	SUCCESS	Length 8: 00 03 16 00 00 0E C1 97 	
462	0.00000419	Vkt5Easy2.exe	IOCTL_SERIAL_GET_COMMSTATUS	Npdrv2	SUCCESS		
463	0.03372999	Vkt5Easy2.exe	IRP_MJ_READ	Npdrv2	TIMEOUT	Length 33: 00 03 1C FF FF FF FF FF FF FF FF FF FF FF FF FF FF 00 00 00 00 00 00 00 00 00 00 00 FF FF FF FC 1A 	
464	19.74519722	Vkt5Easy2.exe	IOCTL_SERIAL_WAIT_ON_MASK	Npdrv2	SUCCESS		
465	0.13955181	Vkt5Easy2.exe	IOCTL_SERIAL_PURGE	Npdrv2	SUCCESS	Purge: TXCLEAR 	
466	0.00000391	Vkt5Easy2.exe	IOCTL_SERIAL_SET_DTR	Npdrv2	SUCCESS		
467	0.00000196	Vkt5Easy2.exe	IOCTL_SERIAL_SET_RTS	Npdrv2	SUCCESS		
468	0.00065735	Vkt5Easy2.exe	IRP_MJ_WRITE	Npdrv2	SUCCESS	Length 8: 00 03 0C 00 00 0A C7 4C 	
469	0.00000475	Vkt5Easy2.exe	IOCTL_SERIAL_GET_COMMSTATUS	Npdrv2	SUCCESS		
470	0.03302543	Vkt5Easy2.exe	IRP_MJ_READ	Npdrv2	TIMEOUT	Length 38: 00 03 21 30 32 2F 30 36 2F 31 35 20 20 20 31 36 3A 33 31 20 20 20 20 50 45 4B 42 88 33 88 92 9B 20 20 20 14 05 E5 	
471	1.71505764	Vkt5Easy2.exe	IOCTL_SERIAL_WAIT_ON_MASK	Npdrv2	SUCCESS		
472	0.14022676	Vkt5Easy2.exe	IOCTL_SERIAL_PURGE	Npdrv2	SUCCESS	Purge: TXCLEAR 	
473	0.00000279	Vkt5Easy2.exe	IOCTL_SERIAL_SET_DTR	Npdrv2	SUCCESS		
474	0.00000168	Vkt5Easy2.exe	IOCTL_SERIAL_SET_RTS	Npdrv2	SUCCESS		
475	0.00065483	Vkt5Easy2.exe	IRP_MJ_WRITE	Npdrv2	SUCCESS	Length 8: 00 03 0C 00 00 0A C7 4C 	
476	0.00000503	Vkt5Easy2.exe	IOCTL_SERIAL_GET_COMMSTATUS	Npdrv2	SUCCESS		
477	0.04486492	Vkt5Easy2.exe	IRP_MJ_READ	Npdrv2	TIMEOUT	Length 38: 00 03 21 30 32 2F 30 36 2F 31 35 20 20 20 31 36 3A 33 31 20 20 20 20 50 45 4B 42 88 33 88 92 9B 20 20 20 14 05 E5 	
478	1.77160868	Vkt5Easy2.exe	IOCTL_SERIAL_WAIT_ON_MASK	Npdrv2	SUCCESS		
479	0.13949147	Vkt5Easy2.exe	IOCTL_SERIAL_PURGE	Npdrv2	SUCCESS	Purge: TXCLEAR 	
480	0.00000335	Vkt5Easy2.exe	IOCTL_SERIAL_SET_DTR	Npdrv2	SUCCESS		
481	0.00000140	Vkt5Easy2.exe	IOCTL_SERIAL_SET_RTS	Npdrv2	SUCCESS		
482	0.00065623	Vkt5Easy2.exe	IRP_MJ_WRITE	Npdrv2	SUCCESS	Length 8: 00 03 0C 00 00 0A C7 4C 	
483	0.00000587	Vkt5Easy2.exe	IOCTL_SERIAL_GET_COMMSTATUS	Npdrv2	SUCCESS		
484	0.03750393	Vkt5Easy2.exe	IRP_MJ_READ	Npdrv2	TIMEOUT	Length 38: 00 03 21 30 32 2F 30 36 2F 31 35 20 20 20 31 36 3A 33 31 20 20 20 20 50 45 4B 42 88 33 88 92 9B 20 20 20 14 05 E5 	
485	1.78110291	Vkt5Easy2.exe	IOCTL_SERIAL_WAIT_ON_MASK	Npdrv2	SUCCESS		
486	0.13908220	Vkt5Easy2.exe	IOCTL_SERIAL_PURGE	Npdrv2	SUCCESS	Purge: TXCLEAR 	
487	0.00000363	Vkt5Easy2.exe	IOCTL_SERIAL_SET_DTR	Npdrv2	SUCCESS		
488	0.00000140	Vkt5Easy2.exe	IOCTL_SERIAL_SET_RTS	Npdrv2	SUCCESS		
489	0.00065232	Vkt5Easy2.exe	IRP_MJ_WRITE	Npdrv2	SUCCESS	Length 8: 00 03 0C 00 00 0A C7 4C 	
490	0.00000475	Vkt5Easy2.exe	IOCTL_SERIAL_GET_COMMSTATUS	Npdrv2	SUCCESS		
491	0.03134560	Vkt5Easy2.exe	IRP_MJ_READ	Npdrv2	TIMEOUT	Length 38: 00 03 21 30 32 2F 30 36 2F 31 35 20 20 20 31 36 3A 33 31 20 20 20 20 50 45 4B 42 88 33 88 92 9B 20 20 20 14 05 E5 	
492	1.78643738	Vkt5Easy2.exe	IOCTL_SERIAL_WAIT_ON_MASK	Npdrv2	SUCCESS		
493	0.13983174	Vkt5Easy2.exe	IOCTL_SERIAL_PURGE	Npdrv2	SUCCESS	Purge: TXCLEAR 	
494	0.00000391	Vkt5Easy2.exe	IOCTL_SERIAL_SET_DTR	Npdrv2	SUCCESS		
495	0.00000140	Vkt5Easy2.exe	IOCTL_SERIAL_SET_RTS	Npdrv2	SUCCESS		
496	0.00065399	Vkt5Easy2.exe	IRP_MJ_WRITE	Npdrv2	SUCCESS	Length 8: 00 03 0C 00 00 0A C7 4C 	
497	0.00000503	Vkt5Easy2.exe	IOCTL_SERIAL_GET_COMMSTATUS	Npdrv2	SUCCESS		
498	0.03972181	Vkt5Easy2.exe	IRP_MJ_READ	Npdrv2	TIMEOUT	Length 38: 00 03 21 30 32 2F 30 36 2F 31 35 20 20 20 31 36 3A 33 31 20 20 20 20 50 45 4B 42 88 33 88 92 9B 20 20 20 14 05 E5 	
499	1.71279981	Vkt5Easy2.exe	IOCTL_SERIAL_WAIT_ON_MASK	Npdrv2	SUCCESS		
500	0.13986861	Vkt5Easy2.exe	IOCTL_SERIAL_PURGE	Npdrv2	SUCCESS	Purge: TXCLEAR 	
501	0.00000307	Vkt5Easy2.exe	IOCTL_SERIAL_SET_DTR	Npdrv2	SUCCESS		
502	0.00000140	Vkt5Easy2.exe	IOCTL_SERIAL_SET_RTS	Npdrv2	SUCCESS		
503	0.00065288	Vkt5Easy2.exe	IRP_MJ_WRITE	Npdrv2	SUCCESS	Length 8: 00 03 0C 00 00 0A C7 4C 	
504	0.00000475	Vkt5Easy2.exe	IOCTL_SERIAL_GET_COMMSTATUS	Npdrv2	SUCCESS		
505	0.03520559	Vkt5Easy2.exe	IRP_MJ_READ	Npdrv2	TIMEOUT	Length 38: 00 03 21 30 32 2F 30 36 2F 31 35 20 20 20 31 36 3A 33 31 20 20 20 20 50 45 4B 42 88 33 88 92 9B 20 20 20 14 05 E5 	
506	1.78165437	Vkt5Easy2.exe	IOCTL_SERIAL_WAIT_ON_MASK	Npdrv2	SUCCESS		
507	0.13984319	Vkt5Easy2.exe	IOCTL_SERIAL_PURGE	Npdrv2	SUCCESS	Purge: TXCLEAR 	
508	0.00000335	Vkt5Easy2.exe	IOCTL_SERIAL_SET_DTR	Npdrv2	SUCCESS		
509	0.00000168	Vkt5Easy2.exe	IOCTL_SERIAL_SET_RTS	Npdrv2	SUCCESS		
510	0.00065427	Vkt5Easy2.exe	IRP_MJ_WRITE	Npdrv2	SUCCESS	Length 8: 00 03 0C 00 00 0A C7 4C 	
511	0.00000503	Vkt5Easy2.exe	IOCTL_SERIAL_GET_COMMSTATUS	Npdrv2	SUCCESS		
512	0.04454281	Vkt5Easy2.exe	IRP_MJ_READ	Npdrv2	TIMEOUT	Length 38: 00 03 21 30 32 2F 30 36 2F 31 35 20 20 20 31 36 3A 33 31 20 20 20 20 50 45 4B 42 88 33 88 92 9B 20 20 20 14 05 E5 	
513	3.99575505	Vkt5Easy2.exe	IOCTL_SERIAL_WAIT_ON_MASK	Npdrv2	SUCCESS		
514	0.13982196	Vkt5Easy2.exe	IOCTL_SERIAL_PURGE	Npdrv2	SUCCESS	Purge: TXCLEAR 	
515	0.00000307	Vkt5Easy2.exe	IOCTL_SERIAL_SET_DTR	Npdrv2	SUCCESS		
516	0.00000168	Vkt5Easy2.exe	IOCTL_SERIAL_SET_RTS	Npdrv2	SUCCESS		
517	0.00065427	Vkt5Easy2.exe	IRP_MJ_WRITE	Npdrv2	SUCCESS	Length 8: 00 03 14 00 00 00 41 EB 	
518	0.00000587	Vkt5Easy2.exe	IOCTL_SERIAL_GET_COMMSTATUS	Npdrv2	SUCCESS		
519	0.03560676	Vkt5Easy2.exe	IRP_MJ_READ	Npdrv2	TIMEOUT	Length 6: 00 83 05 00 F2 9C 	
520	15.58666423	Vkt5Easy2.exe	IOCTL_SERIAL_WAIT_ON_MASK	Npdrv2	SUCCESS		
521	0.13939649	Vkt5Easy2.exe	IOCTL_SERIAL_PURGE	Npdrv2	SUCCESS	Purge: TXCLEAR 	
522	0.00000419	Vkt5Easy2.exe	IOCTL_SERIAL_SET_DTR	Npdrv2	SUCCESS		
523	0.00000196	Vkt5Easy2.exe	IOCTL_SERIAL_SET_RTS	Npdrv2	SUCCESS		
524	0.00065371	Vkt5Easy2.exe	IRP_MJ_WRITE	Npdrv2	SUCCESS	Length 8: 00 03 0B 00 00 0A C6 38 	
525	0.00000531	Vkt5Easy2.exe	IOCTL_SERIAL_GET_COMMSTATUS	Npdrv2	SUCCESS		
526	0.03492734	Vkt5Easy2.exe	IRP_MJ_READ	Npdrv2	TIMEOUT	Length 15: 00 03 0A 07 DF 00 06 00 02 00 10 00 20 54 05 	
527	8.17298930	Vkt5Easy2.exe	IOCTL_SERIAL_WAIT_ON_MASK	Npdrv2	CANCELLED		
528	0.00000531	Vkt5Easy2.exe	IRP_MJ_CLEANUP	Npdrv2	SUCCESS		
529	0.09728555	Vkt5Easy2.exe	IRP_MJ_CLOSE	Npdrv2	SUCCESS		
