0	0.04419193	Vkt5Easy2.exe	IRP_MJ_CREATE	Npdrv2	SUCCESS	Options: Open 	
1	0.00000363	Vkt5Easy2.exe	IOCTL_SERIAL_GET_BAUD_RATE	Npdrv2	SUCCESS		
2	0.00000168	Vkt5Easy2.exe	IOCTL_SERIAL_GET_LINE_CONTROL	Npdrv2	SUCCESS		
3	0.00000168	Vkt5Easy2.exe	IOCTL_SERIAL_GET_CHARS	Npdrv2	SUCCESS		
4	0.00000168	Vkt5Easy2.exe	IOCTL_SERIAL_GET_HANDFLOW	Npdrv2	SUCCESS		
5	0.00000168	Vkt5Easy2.exe	IOCTL_SERIAL_GET_BAUD_RATE	Npdrv2	SUCCESS		
6	0.00000140	Vkt5Easy2.exe	IOCTL_SERIAL_GET_LINE_CONTROL	Npdrv2	SUCCESS		
7	0.00000140	Vkt5Easy2.exe	IOCTL_SERIAL_GET_CHARS	Npdrv2	SUCCESS		
8	0.00000140	Vkt5Easy2.exe	IOCTL_SERIAL_GET_HANDFLOW	Npdrv2	SUCCESS		
9	0.00000140	Vkt5Easy2.exe	IOCTL_SERIAL_SET_BAUD_RATE	Npdrv2	SUCCESS	Rate: 9600	
10	0.00000168	Vkt5Easy2.exe	IOCTL_SERIAL_SET_RTS	Npdrv2	SUCCESS		
11	0.00000112	Vkt5Easy2.exe	IOCTL_SERIAL_SET_DTR	Npdrv2	SUCCESS		
12	0.00000168	Vkt5Easy2.exe	IOCTL_SERIAL_SET_LINE_CONTROL	Npdrv2	SUCCESS	StopBits: 1 Parity: NONE WordLength: 8	
13	0.00000223	Vkt5Easy2.exe	IOCTL_SERIAL_SET_CHAR	Npdrv2	SUCCESS	EOF:0 ERR:0 BRK:0 EVT:0 XON:11 XOFF:13	
14	0.01525026	Vkt5Easy2.exe	IOCTL_SERIAL_SET_HANDFLOW	Npdrv2	SUCCESS	Shake:1 Replace:40 XonLimit:0 XoffLimit:0	
15	0.29682627	Vkt5Easy2.exe	IOCTL_SERIAL_PURGE	Npdrv2	SUCCESS	Purge: TXCLEAR RXCLEAR	
16	0.00000475	Vkt5Easy2.exe	IOCTL_SERIAL_SET_WAIT_MASK	Npdrv2	SUCCESS	Mask: RXCHAR 	
17	0.00000168	Vkt5Easy2.exe	IOCTL_SERIAL_GET_TIMEOUTS	Npdrv2	SUCCESS		
18	0.00000223	Vkt5Easy2.exe	IOCTL_SERIAL_SET_TIMEOUTS	Npdrv2	SUCCESS	RI:16 RM:0 RC:0 WM:0 WC:0	
19	0.28055940	Vkt5Easy2.exe	IOCTL_SERIAL_PURGE	Npdrv2	SUCCESS	Purge: TXCLEAR RXCLEAR	
20	0.31184466	Vkt5Easy2.exe	IOCTL_SERIAL_PURGE	Npdrv2	SUCCESS	Purge: TXCLEAR 	
21	0.00000531	Vkt5Easy2.exe	IOCTL_SERIAL_GET_COMMSTATUS	Npdrv2	SUCCESS		
22	0.48840202	Vkt5Easy2.exe	IOCTL_SERIAL_WAIT_ON_MASK	Npdrv2	SUCCESS		
23	0.00000419	Vkt5Easy2.exe	IOCTL_SERIAL_SET_DTR	Npdrv2	SUCCESS		
24	0.00000196	Vkt5Easy2.exe	IOCTL_SERIAL_SET_RTS	Npdrv2	SUCCESS		
25	0.00065651	Vkt5Easy2.exe	IRP_MJ_WRITE	Npdrv2	SUCCESS	Length 8: 00 03 0E 00 00 01 87 33 	
26	0.00000475	Vkt5Easy2.exe	IOCTL_SERIAL_GET_COMMSTATUS	Npdrv2	SUCCESS		
27	0.04259228	Vkt5Easy2.exe	IRP_MJ_READ	Npdrv2	TIMEOUT	Length 7: 00 03 02 00 7D 45 A5 	
28	0.13874473	Vkt5Easy2.exe	IOCTL_SERIAL_PURGE	Npdrv2	SUCCESS	Purge: TXCLEAR 	
29	0.73432378	Vkt5Easy2.exe	IOCTL_SERIAL_WAIT_ON_MASK	Npdrv2	SUCCESS		
30	0.00000363	Vkt5Easy2.exe	IOCTL_SERIAL_SET_DTR	Npdrv2	SUCCESS		
31	0.00000140	Vkt5Easy2.exe	IOCTL_SERIAL_SET_RTS	Npdrv2	SUCCESS		
32	0.00065623	Vkt5Easy2.exe	IRP_MJ_WRITE	Npdrv2	SUCCESS	Length 8: 00 03 0A 00 00 00 47 C3 	
33	0.00000447	Vkt5Easy2.exe	IOCTL_SERIAL_GET_COMMSTATUS	Npdrv2	SUCCESS		
34	0.04561110	Vkt5Easy2.exe	IRP_MJ_READ	Npdrv2	TIMEOUT	Length 65: 00 03 3C 00 00 00 00 FF 02 00 00 01 00 00 FF 02 00 00 00 00 00 FF 02 00 00 00 00 00 FF 00 00 01 00 02 01 00 02 01 01 01 03 01 00 02 01 00 02 00 00 00 02 00 00 02 00 00 00 02 00 FF FF 00 01 BE E9 	
35	0.13903415	Vkt5Easy2.exe	IOCTL_SERIAL_PURGE	Npdrv2	SUCCESS	Purge: TXCLEAR 	
36	0.69015559	Vkt5Easy2.exe	IOCTL_SERIAL_WAIT_ON_MASK	Npdrv2	SUCCESS		
37	0.00000363	Vkt5Easy2.exe	IOCTL_SERIAL_SET_DTR	Npdrv2	SUCCESS		
38	0.00000140	Vkt5Easy2.exe	IOCTL_SERIAL_SET_RTS	Npdrv2	SUCCESS		
39	0.00065260	Vkt5Easy2.exe	IRP_MJ_WRITE	Npdrv2	SUCCESS	Length 8: 00 03 14 00 00 00 41 EB 	
40	0.00000503	Vkt5Easy2.exe	IOCTL_SERIAL_GET_COMMSTATUS	Npdrv2	SUCCESS		
41	0.04293088	Vkt5Easy2.exe	IRP_MJ_READ	Npdrv2	TIMEOUT	Length 35: 00 03 1E 07 DF 00 06 00 04 00 10 00 1B 07 DF 00 06 00 09 00 0A 00 34 07 DF 00 06 00 04 00 10 00 1B B9 0C 	
42	0.13892687	Vkt5Easy2.exe	IOCTL_SERIAL_PURGE	Npdrv2	SUCCESS	Purge: TXCLEAR 	
43	0.63054997	Vkt5Easy2.exe	IOCTL_SERIAL_WAIT_ON_MASK	Npdrv2	SUCCESS		
44	0.00000307	Vkt5Easy2.exe	IOCTL_SERIAL_SET_DTR	Npdrv2	SUCCESS		
45	0.00000251	Vkt5Easy2.exe	IOCTL_SERIAL_SET_RTS	Npdrv2	SUCCESS		
46	0.00065539	Vkt5Easy2.exe	IRP_MJ_WRITE	Npdrv2	SUCCESS	Length 8: 00 03 0B 00 00 0A C6 38 	
47	0.00000531	Vkt5Easy2.exe	IOCTL_SERIAL_GET_COMMSTATUS	Npdrv2	SUCCESS		
48	0.03967543	Vkt5Easy2.exe	IRP_MJ_READ	Npdrv2	TIMEOUT	Length 15: 00 03 0A 07 DF 00 06 00 09 00 0B 00 34 81 CC 	
49	0.13904784	Vkt5Easy2.exe	IOCTL_SERIAL_PURGE	Npdrv2	SUCCESS	Purge: TXCLEAR 	
50	0.79732424	Vkt5Easy2.exe	IOCTL_SERIAL_WAIT_ON_MASK	Npdrv2	SUCCESS		
51	0.00000363	Vkt5Easy2.exe	IOCTL_SERIAL_SET_DTR	Npdrv2	SUCCESS		
52	0.00000196	Vkt5Easy2.exe	IOCTL_SERIAL_SET_RTS	Npdrv2	SUCCESS		
53	0.00064980	Vkt5Easy2.exe	IRP_MJ_WRITE	Npdrv2	SUCCESS	Length 8: 00 03 10 00 00 FE C1 5B 	
54	0.00000503	Vkt5Easy2.exe	IOCTL_SERIAL_GET_COMMSTATUS	Npdrv2	SUCCESS		
55	0.04488587	Vkt5Easy2.exe	IRP_MJ_READ	Npdrv2	TIMEOUT	Length 104: 00 03 FE 40 3A AA 55 30 30 30 30 30 30 30 30 30 30 30 30 00 FF FF FF 42 00 02 00 00 00 00 FF FF 00 00 FF FF FF FF FF FF FF FF FF FF FF FF FF FF FF FF FF FF FF FF 01 02 00 00 00 00 FF 03 FF FF FF FF FF FF FF FF FF FF FF FF FF FF FF FF FF FF FF FF FF FF 00 02 00 00 00 00 FF FF FF FF FF FF FF FF FF FF FF FF FF FF 	
56	0.07341687	Vkt5Easy2.exe	IOCTL_SERIAL_WAIT_ON_MASK	Npdrv2	SUCCESS		
57	0.00000531	Vkt5Easy2.exe	IOCTL_SERIAL_GET_COMMSTATUS	Npdrv2	SUCCESS		
58	0.03470609	Vkt5Easy2.exe	IRP_MJ_READ	Npdrv2	TIMEOUT	Length 104: FF FF FF FF FF FF FF FF FF FF 00 00 00 00 00 00 FF FF FF FF FF FF FF FF FF FF FF FF FF FF FF FF FF FF FF FF FF FF FF FF 00 02 01 01 02 01 00 03 FF FF FF FF FF FF FF FF FF FF FF FF FF FF FF FF FF FF FF FF FF FF 01 02 01 01 03 01 00 00 FF 00 FF FF FF FF FF FF FF FF FF FF FF FF FF FF FF FF FF FF FF FF 02 02 00 00 	
59	0.02737555	Vkt5Easy2.exe	IOCTL_SERIAL_WAIT_ON_MASK	Npdrv2	SUCCESS		
60	0.00000475	Vkt5Easy2.exe	IOCTL_SERIAL_GET_COMMSTATUS	Npdrv2	SUCCESS		
61	0.03407193	Vkt5Easy2.exe	IRP_MJ_READ	Npdrv2	TIMEOUT	Length 51: 00 00 00 03 FF FF FF FF FF FF FF FF FF FF FF FF FF FF FF FF FF FF FF FF FF FF 02 02 00 00 00 00 00 00 FF FF FF FF FF FF FF FF FF FF FF FF FF FF FF 34 08 	
62	0.13802955	Vkt5Easy2.exe	IOCTL_SERIAL_PURGE	Npdrv2	SUCCESS	Purge: TXCLEAR 	
63	0.81508516	Vkt5Easy2.exe	IOCTL_SERIAL_WAIT_ON_MASK	Npdrv2	SUCCESS		
64	0.00000363	Vkt5Easy2.exe	IOCTL_SERIAL_SET_DTR	Npdrv2	SUCCESS		
65	0.00000223	Vkt5Easy2.exe	IOCTL_SERIAL_SET_RTS	Npdrv2	SUCCESS		
66	0.00071573	Vkt5Easy2.exe	IRP_MJ_WRITE	Npdrv2	SUCCESS	Length 8: 00 03 10 01 00 FE 90 9B 	
67	0.00000475	Vkt5Easy2.exe	IOCTL_SERIAL_GET_COMMSTATUS	Npdrv2	SUCCESS		
68	0.04272973	Vkt5Easy2.exe	IRP_MJ_READ	Npdrv2	TIMEOUT	Length 104: 00 03 FE FF FF FF FF FF FF FF FF 02 FF FF 01 FF 00 05 FF FF 00 00 00 08 FF FF FF FF FF FF FF FF FF FF FF FF FF FF FF FF FF FF FF FF FF FF FF FF FF FF FF FF FF FF FF FF FF FF FF FF FF FF FF FF FF FF FF FF FF 00 00 00 00 00 00 00 00 00 00 00 00 00 00 00 00 01 08 FF FF FF FF FF FF FF FF FF FF FF FF FF FF FF FF FF 	
69	0.07500423	Vkt5Easy2.exe	IOCTL_SERIAL_WAIT_ON_MASK	Npdrv2	SUCCESS		
70	0.00000503	Vkt5Easy2.exe	IOCTL_SERIAL_GET_COMMSTATUS	Npdrv2	SUCCESS		
71	0.03254240	Vkt5Easy2.exe	IRP_MJ_READ	Npdrv2	TIMEOUT	Length 104: FF FF FF FF FF FF FF FF FF FF FF FF FF FF FF FF FF FF FF FF FF FF FF FF FF FF FF FF 00 00 00 00 00 00 00 00 00 00 00 00 00 00 00 00 02 08 FF FF FF FF FF FF FF FF FF FF FF FF FF FF FF FF FF FF FF FF FF FF FF FF FF FF FF FF FF FF FF FF FF FF FF FF FF FF FF FF FF FF FF FF FF 00 00 00 00 00 00 00 00 00 00 00 00 00 	
72	0.02951576	Vkt5Easy2.exe	IOCTL_SERIAL_WAIT_ON_MASK	Npdrv2	SUCCESS		
73	0.00000531	Vkt5Easy2.exe	IOCTL_SERIAL_GET_COMMSTATUS	Npdrv2	SUCCESS		
74	0.03178812	Vkt5Easy2.exe	IRP_MJ_READ	Npdrv2	TIMEOUT	Length 51: 00 00 00 02 08 FF FF FF FF FF FF FF FF FF FF FF FF FF FF FF FF FF FF FF FF FF FF FF FF FF FF FF FF FF FF FF FF FF FF FF FF FF FF FF FF FF FF FF FF 4B 4D 	
75	0.13900174	Vkt5Easy2.exe	IOCTL_SERIAL_PURGE	Npdrv2	SUCCESS	Purge: TXCLEAR 	
76	0.81800676	Vkt5Easy2.exe	IOCTL_SERIAL_WAIT_ON_MASK	Npdrv2	SUCCESS		
77	0.00000391	Vkt5Easy2.exe	IOCTL_SERIAL_SET_DTR	Npdrv2	SUCCESS		
78	0.00000140	Vkt5Easy2.exe	IOCTL_SERIAL_SET_RTS	Npdrv2	SUCCESS		
79	0.00065316	Vkt5Easy2.exe	IRP_MJ_WRITE	Npdrv2	SUCCESS	Length 8: 00 03 10 02 00 FE 60 9B 	
80	0.00000475	Vkt5Easy2.exe	IOCTL_SERIAL_GET_COMMSTATUS	Npdrv2	SUCCESS		
81	0.04122228	Vkt5Easy2.exe	IRP_MJ_READ	Npdrv2	TIMEOUT	Length 104: 00 03 FE FF 00 00 00 00 00 00 00 00 00 00 00 00 00 00 00 00 00 08 FF FF FF FF FF FF FF FF FF FF FF FF FF FF FF FF FF FF FF FF FF FF FF FF FF FF FF FF FF FF FF FF FF FF FF FF FF FF FF FF FF FF FF FF FF 00 00 00 00 00 00 00 00 00 00 00 00 00 00 00 00 01 08 FF FF FF FF FF FF FF FF FF FF FF FF FF FF FF FF FF FF FF 	
82	0.07655666	Vkt5Easy2.exe	IOCTL_SERIAL_WAIT_ON_MASK	Npdrv2	SUCCESS		
83	0.00000559	Vkt5Easy2.exe	IOCTL_SERIAL_GET_COMMSTATUS	Npdrv2	SUCCESS		
84	0.03167302	Vkt5Easy2.exe	IRP_MJ_READ	Npdrv2	TIMEOUT	Length 104: FF FF FF FF FF FF FF FF FF FF FF FF FF FF FF FF FF FF FF FF FF FF FF FF FF FF 00 00 00 00 00 00 00 00 00 00 00 00 00 00 00 00 02 08 FF FF FF FF FF FF FF FF FF FF FF FF FF FF FF FF FF FF FF FF FF FF FF FF FF FF FF FF FF FF FF FF FF FF FF FF FF FF FF FF FF FF FF FF FF 00 00 00 00 00 00 00 00 00 00 00 00 00 00 00 	
85	0.03040303	Vkt5Easy2.exe	IOCTL_SERIAL_WAIT_ON_MASK	Npdrv2	SUCCESS		
86	0.00000475	Vkt5Easy2.exe	IOCTL_SERIAL_GET_COMMSTATUS	Npdrv2	SUCCESS		
87	0.04654279	Vkt5Easy2.exe	IRP_MJ_READ	Npdrv2	TIMEOUT	Length 51: 00 02 08 FF FF FF FF FF FF FF FF FF FF FF FF FF FF FF FF FF FF FF FF FF FF FF FF FF FF FF FF FF FF FF FF FF FF FF FF FF FF FF FF FF FF FF FF FF 00 12 44 	
88	0.13807202	Vkt5Easy2.exe	IOCTL_SERIAL_PURGE	Npdrv2	SUCCESS	Purge: TXCLEAR 	
89	0.80326885	Vkt5Easy2.exe	IOCTL_SERIAL_WAIT_ON_MASK	Npdrv2	SUCCESS		
90	0.00000363	Vkt5Easy2.exe	IOCTL_SERIAL_SET_DTR	Npdrv2	SUCCESS		
91	0.00000168	Vkt5Easy2.exe	IOCTL_SERIAL_SET_RTS	Npdrv2	SUCCESS		
92	0.00065455	Vkt5Easy2.exe	IRP_MJ_WRITE	Npdrv2	SUCCESS	Length 8: 00 03 10 03 00 FE 31 5B 	
93	0.00000503	Vkt5Easy2.exe	IOCTL_SERIAL_GET_COMMSTATUS	Npdrv2	SUCCESS		
94	0.03896501	Vkt5Easy2.exe	IRP_MJ_READ	Npdrv2	TIMEOUT	Length 104: 00 03 FE 00 00 00 00 00 00 00 00 00 00 00 00 00 00 00 00 08 FF FF FF FF FF FF FF FF FF FF FF FF FF FF FF FF FF FF FF FF FF FF FF FF FF FF FF FF FF FF FF FF FF FF FF FF FF FF FF FF FF FF FF FF FF 00 00 00 00 00 00 00 00 00 00 00 00 00 00 00 00 01 08 FF FF FF FF FF FF FF FF FF FF FF FF FF FF FF FF FF FF FF FF FF 	
95	0.07884158	Vkt5Easy2.exe	IOCTL_SERIAL_WAIT_ON_MASK	Npdrv2	SUCCESS		
96	0.00000475	Vkt5Easy2.exe	IOCTL_SERIAL_GET_COMMSTATUS	Npdrv2	SUCCESS		
97	0.04493560	Vkt5Easy2.exe	IRP_MJ_READ	Npdrv2	TIMEOUT	Length 104: FF FF FF FF FF FF FF FF FF FF FF FF FF FF FF FF FF FF FF FF FF FF FF FF 00 00 00 00 00 00 00 00 00 00 00 00 00 00 00 00 02 08 FF FF FF FF FF FF FF FF FF FF FF FF FF FF FF FF FF FF FF FF FF FF FF FF FF FF FF FF FF FF FF FF FF FF FF FF FF FF FF FF FF FF FF FF FF 00 00 00 00 00 00 00 00 00 00 00 00 00 00 00 00 02 	
98	0.01717285	Vkt5Easy2.exe	IOCTL_SERIAL_WAIT_ON_MASK	Npdrv2	SUCCESS		
99	0.00000475	Vkt5Easy2.exe	IOCTL_SERIAL_GET_COMMSTATUS	Npdrv2	SUCCESS		
100	0.04414053	Vkt5Easy2.exe	IRP_MJ_READ	Npdrv2	TIMEOUT	Length 51: 08 FF FF FF FF FF FF FF FF FF FF FF FF FF FF FF FF FF FF FF FF FF FF FF FF FF FF FF FF FF FF FF FF FF FF FF FF FF FF FF FF FF FF FF FF FF 00 00 00 04 61 	
101	0.13895481	Vkt5Easy2.exe	IOCTL_SERIAL_PURGE	Npdrv2	SUCCESS	Purge: TXCLEAR 	
102	0.80369460	Vkt5Easy2.exe	IOCTL_SERIAL_WAIT_ON_MASK	Npdrv2	SUCCESS		
103	0.00000391	Vkt5Easy2.exe	IOCTL_SERIAL_SET_DTR	Npdrv2	SUCCESS		
104	0.00000168	Vkt5Easy2.exe	IOCTL_SERIAL_SET_RTS	Npdrv2	SUCCESS		
105	0.00065288	Vkt5Easy2.exe	IRP_MJ_WRITE	Npdrv2	SUCCESS	Length 8: 00 03 10 04 00 FE 80 9A 	
106	0.00000447	Vkt5Easy2.exe	IOCTL_SERIAL_GET_COMMSTATUS	Npdrv2	SUCCESS		
107	0.03847025	Vkt5Easy2.exe	IRP_MJ_READ	Npdrv2	TIMEOUT	Length 104: 00 03 FE 00 00 00 00 00 00 00 00 00 00 00 00 00 00 08 FF FF FF FF FF FF FF FF FF FF FF FF FF FF FF FF FF FF FF FF FF FF FF FF FF FF FF FF FF FF FF FF FF FF FF FF FF FF FF FF FF FF FF FF FF 00 00 00 00 00 00 00 00 00 00 00 00 00 00 00 00 01 08 FF FF FF FF FF FF FF FF FF FF FF FF FF FF FF FF FF FF FF FF FF FF FF 	
108	0.07935310	Vkt5Easy2.exe	IOCTL_SERIAL_WAIT_ON_MASK	Npdrv2	SUCCESS		
109	0.00000475	Vkt5Easy2.exe	IOCTL_SERIAL_GET_COMMSTATUS	Npdrv2	SUCCESS		
110	0.04442520	Vkt5Easy2.exe	IRP_MJ_READ	Npdrv2	TIMEOUT	Length 104: FF FF FF FF FF FF FF FF FF FF FF FF FF FF FF FF FF FF FF FF FF FF 00 00 00 00 00 00 00 00 00 00 00 00 00 00 00 00 02 08 FF FF FF FF FF FF FF FF FF FF FF FF FF FF FF FF FF FF FF FF FF FF FF FF FF FF FF FF FF FF FF FF FF FF FF FF FF FF FF FF FF FF FF FF FF 00 00 00 00 00 00 00 00 00 00 00 00 00 00 00 00 02 08 FF 	
111	0.01827718	Vkt5Easy2.exe	IOCTL_SERIAL_WAIT_ON_MASK	Npdrv2	SUCCESS		
112	0.00000503	Vkt5Easy2.exe	IOCTL_SERIAL_GET_COMMSTATUS	Npdrv2	SUCCESS		
113	0.04304318	Vkt5Easy2.exe	IRP_MJ_READ	Npdrv2	TIMEOUT	Length 51: FF FF FF FF FF FF FF FF FF FF FF FF FF FF FF FF FF FF FF FF FF FF FF FF FF FF FF FF FF FF FF FF FF FF FF FF FF FF FF FF FF FF FF FF 00 00 00 00 00 BB 8E 	
114	0.13898582	Vkt5Easy2.exe	IOCTL_SERIAL_PURGE	Npdrv2	SUCCESS	Purge: TXCLEAR 	
115	0.80551159	Vkt5Easy2.exe	IOCTL_SERIAL_WAIT_ON_MASK	Npdrv2	SUCCESS		
116	0.00000363	Vkt5Easy2.exe	IOCTL_SERIAL_SET_DTR	Npdrv2	SUCCESS		
117	0.00000168	Vkt5Easy2.exe	IOCTL_SERIAL_SET_RTS	Npdrv2	SUCCESS		
118	0.00065483	Vkt5Easy2.exe	IRP_MJ_WRITE	Npdrv2	SUCCESS	Length 8: 00 03 10 05 00 FE D1 5A 	
119	0.00000503	Vkt5Easy2.exe	IOCTL_SERIAL_GET_COMMSTATUS	Npdrv2	SUCCESS		
120	0.03672115	Vkt5Easy2.exe	IRP_MJ_READ	Npdrv2	TIMEOUT	Length 104: 00 03 FE 00 00 00 00 00 00 00 00 00 00 00 00 09 0C FF FF FF FF FF FF FF FF FF FF FF FF FF FF FF FF FF FF FF FF FF FF FF FF FF FF FF FF FF FF FF FF FF FF FF FF FF FF FF FF FF FF FF FF 00 00 00 00 00 00 00 00 00 00 00 00 00 00 00 00 01 06 00 3F CC CC CD 00 00 00 00 FF FF FF FF FF FF FF FF FF FF FF FF FF FF FF FF 	
121	0.08111282	Vkt5Easy2.exe	IOCTL_SERIAL_WAIT_ON_MASK	Npdrv2	SUCCESS		
122	0.00000503	Vkt5Easy2.exe	IOCTL_SERIAL_GET_COMMSTATUS	Npdrv2	SUCCESS		
123	0.04268364	Vkt5Easy2.exe	IRP_MJ_READ	Npdrv2	TIMEOUT	Length 104: FF FF FF FF FF FF FF FF FF FF FF FF FF FF FF FF FF FF FF FF 00 00 00 00 00 00 00 00 00 00 00 00 00 00 00 00 02 07 04 43 96 00 00 41 20 00 00 42 C8 00 00 FF FF FF FF FF FF FF FF FF FF FF FF FF FF FF FF 41 20 00 00 FF FF FF FF FF FF FF FF FF FF FF FF 00 00 00 00 00 00 00 00 00 00 00 00 00 00 00 00 02 07 FF FF FF 	
124	0.01930553	Vkt5Easy2.exe	IOCTL_SERIAL_WAIT_ON_MASK	Npdrv2	SUCCESS		
125	0.00000503	Vkt5Easy2.exe	IOCTL_SERIAL_GET_COMMSTATUS	Npdrv2	SUCCESS		
126	0.04190616	Vkt5Easy2.exe	IRP_MJ_READ	Npdrv2	TIMEOUT	Length 51: FF FF FF FF FF FF FF FF FF FF FF FF FF FF FF FF FF FF FF FF FF FF FF FF FF FF FF FF FF FF FF FF FF FF FF FF FF FF FF FF FF FF 00 00 00 00 00 00 00 41 EB 	
127	0.13901851	Vkt5Easy2.exe	IOCTL_SERIAL_PURGE	Npdrv2	SUCCESS	Purge: TXCLEAR 	
128	0.80759119	Vkt5Easy2.exe	IOCTL_SERIAL_WAIT_ON_MASK	Npdrv2	SUCCESS		
129	0.00000335	Vkt5Easy2.exe	IOCTL_SERIAL_SET_DTR	Npdrv2	SUCCESS		
130	0.00000168	Vkt5Easy2.exe	IOCTL_SERIAL_SET_RTS	Npdrv2	SUCCESS		
131	0.00065316	Vkt5Easy2.exe	IRP_MJ_WRITE	Npdrv2	SUCCESS	Length 8: 00 03 10 06 00 FE 21 5A 	
132	0.00000475	Vkt5Easy2.exe	IOCTL_SERIAL_GET_COMMSTATUS	Npdrv2	SUCCESS		
133	0.03454964	Vkt5Easy2.exe	IRP_MJ_READ	Npdrv2	TIMEOUT	Length 104: 00 03 FE 00 00 00 00 00 00 00 00 00 00 09 0D FF FF FF FF FF FF FF FF FF FF FF FF FF FF FF FF FF FF FF FF FF FF FF FF FF FF FF FF FF FF FF FF FF FF FF FF FF FF FF FF FF FF FF FF 00 00 00 00 00 00 00 00 00 00 00 00 00 00 00 00 01 06 FF FF FF FF FF FF FF FF FF FF FF FF FF FF FF FF FF FF FF FF FF FF FF FF FF FF FF 	
134	0.08376344	Vkt5Easy2.exe	IOCTL_SERIAL_WAIT_ON_MASK	Npdrv2	SUCCESS		
135	0.00000475	Vkt5Easy2.exe	IOCTL_SERIAL_GET_COMMSTATUS	Npdrv2	SUCCESS		
136	0.04004168	Vkt5Easy2.exe	IRP_MJ_READ	Npdrv2	TIMEOUT	Length 104: FF FF FF FF FF FF FF FF FF FF FF FF FF FF FF FF FF FF 00 00 00 00 00 00 00 00 00 00 00 00 00 00 00 00 02 07 05 43 96 00 00 41 20 00 00 42 C8 00 00 FF FF FF FF FF FF FF FF FF FF FF FF FF FF FF FF 41 20 00 00 FF FF FF FF FF FF FF FF FF FF FF FF 00 00 00 00 00 00 00 00 00 00 00 00 00 00 00 00 02 07 FF FF FF FF FF 	
137	0.02208633	Vkt5Easy2.exe	IOCTL_SERIAL_WAIT_ON_MASK	Npdrv2	SUCCESS		
138	0.00000475	Vkt5Easy2.exe	IOCTL_SERIAL_GET_COMMSTATUS	Npdrv2	SUCCESS		
139	0.03924605	Vkt5Easy2.exe	IRP_MJ_READ	Npdrv2	TIMEOUT	Length 51: FF FF FF FF FF FF FF FF FF FF FF FF FF FF FF FF FF FF FF FF FF FF FF FF FF FF FF FF FF FF FF FF FF FF FF FF FF FF FF FF 00 00 00 00 00 00 00 00 00 85 CF 	
140	0.13900314	Vkt5Easy2.exe	IOCTL_SERIAL_PURGE	Npdrv2	SUCCESS	Purge: TXCLEAR 	
141	0.80991942	Vkt5Easy2.exe	IOCTL_SERIAL_WAIT_ON_MASK	Npdrv2	SUCCESS		
142	0.00000363	Vkt5Easy2.exe	IOCTL_SERIAL_SET_DTR	Npdrv2	SUCCESS		
143	0.00000140	Vkt5Easy2.exe	IOCTL_SERIAL_SET_RTS	Npdrv2	SUCCESS		
144	0.00071322	Vkt5Easy2.exe	IRP_MJ_WRITE	Npdrv2	SUCCESS	Length 8: 00 03 10 07 00 FE 70 9A 	
145	0.00000503	Vkt5Easy2.exe	IOCTL_SERIAL_GET_COMMSTATUS	Npdrv2	SUCCESS		
146	0.03231221	Vkt5Easy2.exe	IRP_MJ_READ	Npdrv2	TIMEOUT	Length 104: 00 03 FE 00 00 00 00 00 00 00 02 08 FF FF FF FF FF FF FF FF FF FF FF FF FF FF FF FF FF FF FF FF FF FF FF FF FF FF FF FF FF FF FF FF FF FF FF FF FF FF FF FF FF FF FF FF FF 00 00 00 00 00 00 00 00 00 00 00 00 00 00 00 00 01 08 FF FF FF FF FF FF FF FF FF FF FF FF FF FF FF FF FF FF FF FF FF FF FF FF FF FF FF FF FF 	
147	0.08560222	Vkt5Easy2.exe	IOCTL_SERIAL_WAIT_ON_MASK	Npdrv2	SUCCESS		
148	0.00000503	Vkt5Easy2.exe	IOCTL_SERIAL_GET_COMMSTATUS	Npdrv2	SUCCESS		
149	0.03818083	Vkt5Easy2.exe	IRP_MJ_READ	Npdrv2	TIMEOUT	Length 104: FF FF FF FF FF FF FF FF FF FF FF FF FF FF FF FF 00 00 00 00 00 00 00 00 00 00 00 00 00 00 00 00 02 08 FF FF FF FF FF FF FF FF FF FF FF FF FF FF FF FF FF FF FF FF FF FF FF FF FF FF FF FF FF FF FF FF FF FF FF FF FF FF FF FF FF FF FF FF FF 00 00 00 00 00 00 00 00 00 00 00 00 00 00 00 00 02 08 FF FF FF FF FF FF FF 	
150	0.02384828	Vkt5Easy2.exe	IOCTL_SERIAL_WAIT_ON_MASK	Npdrv2	SUCCESS		
151	0.00000503	Vkt5Easy2.exe	IOCTL_SERIAL_GET_COMMSTATUS	Npdrv2	SUCCESS		
152	0.03740922	Vkt5Easy2.exe	IRP_MJ_READ	Npdrv2	TIMEOUT	Length 51: FF FF FF FF FF FF FF FF FF FF FF FF FF FF FF FF FF FF FF FF FF FF FF FF FF FF FF FF FF FF FF FF FF FF FF FF FF FF 00 00 00 00 00 00 00 00 00 00 00 EA 72 	
153	0.13835054	Vkt5Easy2.exe	IOCTL_SERIAL_PURGE	Npdrv2	SUCCESS	Purge: TXCLEAR 	
154	0.81099441	Vkt5Easy2.exe	IOCTL_SERIAL_WAIT_ON_MASK	Npdrv2	SUCCESS		
155	0.00000335	Vkt5Easy2.exe	IOCTL_SERIAL_SET_DTR	Npdrv2	SUCCESS		
156	0.00000168	Vkt5Easy2.exe	IOCTL_SERIAL_SET_RTS	Npdrv2	SUCCESS		
157	0.00065120	Vkt5Easy2.exe	IRP_MJ_WRITE	Npdrv2	SUCCESS	Length 8: 00 03 10 08 00 FE 40 99 	
158	0.00000531	Vkt5Easy2.exe	IOCTL_SERIAL_GET_COMMSTATUS	Npdrv2	SUCCESS		
159	0.04679394	Vkt5Easy2.exe	IRP_MJ_READ	Npdrv2	TIMEOUT	Length 104: 00 03 FE 00 00 00 00 00 02 08 FF FF FF FF FF FF FF FF FF FF FF FF FF FF FF FF FF FF FF FF FF FF FF FF FF FF FF FF FF FF FF FF FF FF FF FF FF FF FF FF FF FF FF FF FF 00 00 00 00 00 00 00 00 00 00 00 00 00 00 00 00 01 08 FF FF FF FF FF FF FF FF FF FF FF FF FF FF FF FF FF FF FF FF FF FF FF FF FF FF FF FF FF FF FF 	
160	0.07064250	Vkt5Easy2.exe	IOCTL_SERIAL_WAIT_ON_MASK	Npdrv2	SUCCESS		
161	0.00000475	Vkt5Easy2.exe	IOCTL_SERIAL_GET_COMMSTATUS	Npdrv2	SUCCESS		
162	0.03706086	Vkt5Easy2.exe	IRP_MJ_READ	Npdrv2	TIMEOUT	Length 104: FF FF FF FF FF FF FF FF FF FF FF FF FF FF 00 00 00 00 00 00 00 00 00 00 00 00 00 00 00 00 02 08 FF FF FF FF FF FF FF FF FF FF FF FF FF FF FF FF FF FF FF FF FF FF FF FF FF FF FF FF FF FF FF FF FF FF FF FF FF FF FF FF FF FF FF FF FF 00 00 00 00 00 00 00 00 00 00 00 00 00 00 00 00 02 08 FF FF FF FF FF FF FF FF FF 	
163	0.02442936	Vkt5Easy2.exe	IOCTL_SERIAL_WAIT_ON_MASK	Npdrv2	SUCCESS		
164	0.00000559	Vkt5Easy2.exe	IOCTL_SERIAL_GET_COMMSTATUS	Npdrv2	SUCCESS		
165	0.03629428	Vkt5Easy2.exe	IRP_MJ_READ	Npdrv2	TIMEOUT	Length 51: FF FF FF FF FF FF FF FF FF FF FF FF FF FF FF FF FF FF FF FF FF FF FF FF FF FF FF FF FF FF FF FF FF FF FF FF 00 00 00 00 00 00 00 00 00 00 00 00 00 B7 E3 	
166	0.13864919	Vkt5Easy2.exe	IOCTL_SERIAL_PURGE	Npdrv2	SUCCESS	Purge: TXCLEAR 	
167	0.81173669	Vkt5Easy2.exe	IOCTL_SERIAL_WAIT_ON_MASK	Npdrv2	SUCCESS		
168	0.00000363	Vkt5Easy2.exe	IOCTL_SERIAL_SET_DTR	Npdrv2	SUCCESS		
169	0.00000196	Vkt5Easy2.exe	IOCTL_SERIAL_SET_RTS	Npdrv2	SUCCESS		
170	0.00065176	Vkt5Easy2.exe	IRP_MJ_WRITE	Npdrv2	SUCCESS	Length 8: 00 03 10 09 00 FE 11 59 	
171	0.00000503	Vkt5Easy2.exe	IOCTL_SERIAL_GET_COMMSTATUS	Npdrv2	SUCCESS		
172	0.04612905	Vkt5Easy2.exe	IRP_MJ_READ	Npdrv2	TIMEOUT	Length 104: 00 03 FE 00 00 00 46 3F F4 00 41 80 00 00 FF FF FF FF FF FF FF FF FF FF FF FF FF FF FF FF 00 00 00 00 02 46 3F D4 00 41 80 00 00 FF FF FF FF FF FF FF FF FF FF 00 00 00 00 00 00 38 EC 0A 00 02 46 3F 90 00 41 80 00 00 FF FF FF FF FF FF FF FF FF FF FF FF FF FF FF FF 00 00 00 00 FF 46 40 20 00 41 80 00 00 FF FF FF 	
173	0.07166050	Vkt5Easy2.exe	IOCTL_SERIAL_WAIT_ON_MASK	Npdrv2	SUCCESS		
174	0.00000531	Vkt5Easy2.exe	IOCTL_SERIAL_GET_COMMSTATUS	Npdrv2	SUCCESS		
175	0.03647279	Vkt5Easy2.exe	IRP_MJ_READ	Npdrv2	TIMEOUT	Length 104: FF FF FF FF FF FF FF FF FF FF FF FF 00 38 FB E5 CD 00 46 3F C4 00 41 80 00 00 00 00 FF FF FF FF FF FF FF FF FF FF FF FF FF FF 00 00 00 00 FF 46 3F F4 00 41 80 00 00 FF FF FF FF FF FF FF FF FF FF FF FF FF FF FF FF 00 00 00 00 00 46 40 4C 00 41 80 00 00 00 00 00 00 00 00 00 FF FF FF FF FF FF FF FF FF 00 00 00 00 	
176	0.02593095	Vkt5Easy2.exe	IOCTL_SERIAL_WAIT_ON_MASK	Npdrv2	SUCCESS		
177	0.00000475	Vkt5Easy2.exe	IOCTL_SERIAL_GET_COMMSTATUS	Npdrv2	SUCCESS		
178	0.03541875	Vkt5Easy2.exe	IRP_MJ_READ	Npdrv2	TIMEOUT	Length 51: FF 46 3F C4 00 41 80 00 00 FF FF FF FF FF FF FF FF FF FF FF FF FF FF FF FF 00 00 00 00 FF 45 51 B0 00 3C 79 50 CE 00 00 00 00 00 00 00 00 46 51 90 CB 1F 	
179	0.13873272	Vkt5Easy2.exe	IOCTL_SERIAL_PURGE	Npdrv2	SUCCESS	Purge: TXCLEAR 	
180	0.81418057	Vkt5Easy2.exe	IOCTL_SERIAL_WAIT_ON_MASK	Npdrv2	SUCCESS		
181	0.00000363	Vkt5Easy2.exe	IOCTL_SERIAL_SET_DTR	Npdrv2	SUCCESS		
182	0.00000140	Vkt5Easy2.exe	IOCTL_SERIAL_SET_RTS	Npdrv2	SUCCESS		
183	0.00065567	Vkt5Easy2.exe	IRP_MJ_WRITE	Npdrv2	SUCCESS	Length 8: 00 03 10 0A 00 FE E1 59 	
184	0.00000503	Vkt5Easy2.exe	IOCTL_SERIAL_GET_COMMSTATUS	Npdrv2	SUCCESS		
185	0.04366253	Vkt5Easy2.exe	IRP_MJ_READ	Npdrv2	TIMEOUT	Length 104: 00 03 FE 00 3B 79 5F FA FF FF FF FF 09 45 51 B0 00 3C 79 50 CE FF FF FF FF FF FF FF FF 46 51 90 00 3B 79 5F FA FF FF FF FF 08 45 51 B0 00 3C 79 50 CE FF 00 00 00 00 00 00 00 46 51 90 00 3B 79 5F FA 00 FF FF FF 09 45 51 B0 00 3C 79 50 CE FF FF FF FF FF FF FF FF 46 51 90 00 3B 79 5F FA FF FF FF FF FF 45 51 B0 00 	
186	0.07414183	Vkt5Easy2.exe	IOCTL_SERIAL_WAIT_ON_MASK	Npdrv2	SUCCESS		
187	0.00000475	Vkt5Easy2.exe	IOCTL_SERIAL_GET_COMMSTATUS	Npdrv2	SUCCESS		
188	0.03402499	Vkt5Easy2.exe	IRP_MJ_READ	Npdrv2	TIMEOUT	Length 104: 3C 79 50 CE FF FF FF FF FF FF 00 00 46 51 90 00 3B 79 5F FA 00 00 00 00 09 45 51 B0 00 3C 79 50 CE FF FF FF FF FF FF FF FF 46 51 90 00 3B 79 5F FA FF FF FF FF 09 45 51 B0 00 3C 79 50 CE FF FF FF FF FF FF FF FF 46 51 94 00 3B 79 61 51 00 00 00 00 09 45 51 B0 00 3C 79 4F 3E FF FF FF FF FF FF FF FF 46 51 90 00 3B 	
189	0.02855279	Vkt5Easy2.exe	IOCTL_SERIAL_WAIT_ON_MASK	Npdrv2	SUCCESS		
190	0.00000419	Vkt5Easy2.exe	IOCTL_SERIAL_GET_COMMSTATUS	Npdrv2	SUCCESS		
191	0.03252341	Vkt5Easy2.exe	IRP_MJ_READ	Npdrv2	TIMEOUT	Length 51: 79 5F FA FF FF FF FF FF FF FF FF FF FF FF FF FF FF FF FF FF FF FF FF FF FF FF FF FF FF FF FF FF 00 00 00 00 00 00 00 00 00 00 00 00 00 00 00 00 FF D8 1A 	
192	0.13900594	Vkt5Easy2.exe	IOCTL_SERIAL_PURGE	Npdrv2	SUCCESS	Purge: TXCLEAR 	
193	0.81543353	Vkt5Easy2.exe	IOCTL_SERIAL_WAIT_ON_MASK	Npdrv2	SUCCESS		
194	0.00000307	Vkt5Easy2.exe	IOCTL_SERIAL_SET_DTR	Npdrv2	SUCCESS		
195	0.00000168	Vkt5Easy2.exe	IOCTL_SERIAL_SET_RTS	Npdrv2	SUCCESS		
196	0.00065371	Vkt5Easy2.exe	IRP_MJ_WRITE	Npdrv2	SUCCESS	Length 8: 00 03 10 0B 00 FE B0 99 	
197	0.00000475	Vkt5Easy2.exe	IOCTL_SERIAL_GET_COMMSTATUS	Npdrv2	SUCCESS		
198	0.04231851	Vkt5Easy2.exe	IRP_MJ_READ	Npdrv2	TIMEOUT	Length 104: 00 03 FE FF FF FF FF FF FF FF FF FF FF FF FF FF FF FF FF FF FF FF FF FF FF FF FF FF FF FF FF FF FF 38 00 00 00 00 00 00 00 38 00 00 00 00 00 00 00 00 00 00 00 00 00 00 00 00 00 00 00 00 00 00 00 FF FF FF FF FF FF FF FF FF FF FF FF FF FF FF FF FF FF FF FF FF FF FF FF FF FF FF FF FF FF FF FF FF FF FF FF FF FF FF 	
199	0.07556491	Vkt5Easy2.exe	IOCTL_SERIAL_WAIT_ON_MASK	Npdrv2	SUCCESS		
200	0.00000531	Vkt5Easy2.exe	IOCTL_SERIAL_GET_COMMSTATUS	Npdrv2	SUCCESS		
201	0.03258152	Vkt5Easy2.exe	IRP_MJ_READ	Npdrv2	TIMEOUT	Length 104: FF FF FF FF FF FF FF FF 00 00 00 00 00 00 00 00 00 00 00 00 00 00 00 00 FF FF FF FF FF FF FF FF FF FF FF FF FF FF FF FF FF FF FF FF FF FF 42 C8 00 00 41 08 00 00 42 C8 00 00 00 00 00 00 FF FF FF FF FF FF FF FF FF FF FF FF 42 C8 00 00 FF 00 00 00 00 FF FF FF 00 00 00 00 FF FF FF FF FF FF FF FF FF FF FF FF 42 C8 	
202	0.02951688	Vkt5Easy2.exe	IOCTL_SERIAL_WAIT_ON_MASK	Npdrv2	SUCCESS		
203	0.00000475	Vkt5Easy2.exe	IOCTL_SERIAL_GET_COMMSTATUS	Npdrv2	SUCCESS		
204	0.03181857	Vkt5Easy2.exe	IRP_MJ_READ	Npdrv2	TIMEOUT	Length 51: 00 00 FF FF FF FF FF FF FF FF 00 00 00 00 FF FF FF FF FF FF FF FF FF FF FF FF 42 C8 00 00 00 00 00 00 00 00 00 00 00 00 00 00 40 46 66 66 40 10 00 47 DA 	
205	0.13891794	Vkt5Easy2.exe	IOCTL_SERIAL_PURGE	Npdrv2	SUCCESS	Purge: TXCLEAR 	
206	0.75275601	Vkt5Easy2.exe	IOCTL_SERIAL_WAIT_ON_MASK	Npdrv2	SUCCESS		
207	0.00000363	Vkt5Easy2.exe	IOCTL_SERIAL_SET_DTR	Npdrv2	SUCCESS		
208	0.00000168	Vkt5Easy2.exe	IOCTL_SERIAL_SET_RTS	Npdrv2	SUCCESS		
209	0.00065176	Vkt5Easy2.exe	IRP_MJ_WRITE	Npdrv2	SUCCESS	Length 8: 00 03 10 0C 00 FE 01 58 	
210	0.00000475	Vkt5Easy2.exe	IOCTL_SERIAL_GET_COMMSTATUS	Npdrv2	SUCCESS		
211	0.04257021	Vkt5Easy2.exe	IRP_MJ_READ	Npdrv2	TIMEOUT	Length 104: 00 03 FE 00 41 20 00 00 42 C8 00 00 40 20 00 00 42 B5 00 00 40 00 00 00 40 39 99 9A 3F F3 33 34 3F 80 00 00 42 C8 00 00 40 B9 99 9A 41 94 00 00 00 00 00 00 FF FF FF 00 00 00 00 00 00 00 00 FF 42 C8 00 00 FF FF FF FF FF FF FF FF 00 00 00 00 FF FF FF FF FF FF FF FF FF FF FF FF 42 C8 00 00 FF FF FF FF FF FF FF FF 	
212	0.07537466	Vkt5Easy2.exe	IOCTL_SERIAL_WAIT_ON_MASK	Npdrv2	SUCCESS		
213	0.00000531	Vkt5Easy2.exe	IOCTL_SERIAL_GET_COMMSTATUS	Npdrv2	SUCCESS		
214	0.03281842	Vkt5Easy2.exe	IRP_MJ_READ	Npdrv2	TIMEOUT	Length 104: 00 00 00 00 FF FF 00 00 00 00 00 00 00 00 00 00 00 00 00 00 00 00 FF FF FF FF FF FF FF FF FF FF FF FF FF FF FF FF FF FF FF FF FF FF FF FF FF FF FF FF FF FF FF FF FF FF FF FF FF FF FF FF FF FF FF FF FF FF FF 00 00 00 00 00 00 00 00 00 00 00 00 00 00 00 00 FF FF FF FF FF FF FF FF FF FF FF FF FF FF FF FF FF FF FF 	
215	0.02890898	Vkt5Easy2.exe	IOCTL_SERIAL_WAIT_ON_MASK	Npdrv2	SUCCESS		
216	0.00000503	Vkt5Easy2.exe	IOCTL_SERIAL_GET_COMMSTATUS	Npdrv2	SUCCESS		
217	0.03204597	Vkt5Easy2.exe	IRP_MJ_READ	Npdrv2	TIMEOUT	Length 51: FF FF FF FF FF FF FF FF FF FF FF FF FF FF FF FF FF FF FF FF FF FF FF FF FF FF FF FF 00 00 00 00 00 00 00 00 00 00 00 00 44 3D 00 00 03 00 00 00 01 C8 EC 	
218	0.13932022	Vkt5Easy2.exe	IOCTL_SERIAL_PURGE	Npdrv2	SUCCESS	Purge: TXCLEAR 	
219	0.81596823	Vkt5Easy2.exe	IOCTL_SERIAL_WAIT_ON_MASK	Npdrv2	SUCCESS		
220	0.00000363	Vkt5Easy2.exe	IOCTL_SERIAL_SET_DTR	Npdrv2	SUCCESS		
221	0.00000168	Vkt5Easy2.exe	IOCTL_SERIAL_SET_RTS	Npdrv2	SUCCESS		
222	0.00065092	Vkt5Easy2.exe	IRP_MJ_WRITE	Npdrv2	SUCCESS	Length 8: 00 03 10 0D 00 FE 50 98 	
223	0.00000503	Vkt5Easy2.exe	IOCTL_SERIAL_GET_COMMSTATUS	Npdrv2	SUCCESS		
224	0.04189639	Vkt5Easy2.exe	IRP_MJ_READ	Npdrv2	TIMEOUT	Length 104: 00 03 FE 01 07 DF 06 04 12 23 18 00 00 FF FF FF FF FF FF FF FF FF FF FF FF FF FF FF FF FF FF FF FF FF FF FF FF FF FF FF FF FF FF FF FF 00 00 00 00 00 00 00 00 00 00 00 00 00 00 00 00 FF FF FF FF FF FF FF FF FF FF FF FF FF FF FF FF FF FF FF FF FF FF FF FF FF FF FF FF FF FF FF FF FF FF FF FF FF FF FF FF FF FF FF 	
225	0.07591021	Vkt5Easy2.exe	IOCTL_SERIAL_WAIT_ON_MASK	Npdrv2	SUCCESS		
226	0.00000531	Vkt5Easy2.exe	IOCTL_SERIAL_GET_COMMSTATUS	Npdrv2	SUCCESS		
227	0.03222924	Vkt5Easy2.exe	IRP_MJ_READ	Npdrv2	TIMEOUT	Length 104: FF FF FF FF 00 00 00 00 00 00 00 00 00 00 00 00 00 00 00 00 FF FF FF FF FF FF FF FF FF FF FF FF FF FF FF FF FF FF FF FF FF FF FF FF FF FF FF FF FF FF FF FF FF FF FF FF FF FF FF FF FF FF FF FF FF FF FF 00 00 00 00 00 00 00 00 00 00 00 00 00 00 00 00 FF FF FF FF FF FF FF FF FF FF FF FF FF FF FF FF FF FF FF FF FF 	
228	0.02982167	Vkt5Easy2.exe	IOCTL_SERIAL_WAIT_ON_MASK	Npdrv2	SUCCESS		
229	0.00000531	Vkt5Easy2.exe	IOCTL_SERIAL_GET_COMMSTATUS	Npdrv2	SUCCESS		
230	0.03145344	Vkt5Easy2.exe	IRP_MJ_READ	Npdrv2	TIMEOUT	Length 51: FF FF FF FF FF FF FF FF FF FF FF FF FF FF FF FF FF FF FF FF FF FF FF FF FF FF 00 00 00 00 00 00 00 00 00 00 00 00 00 00 00 00 FF FF FF FF FF FF FF 76 83 	
231	0.13900929	Vkt5Easy2.exe	IOCTL_SERIAL_PURGE	Npdrv2	SUCCESS	Purge: TXCLEAR 	
232	0.75202854	Vkt5Easy2.exe	IOCTL_SERIAL_WAIT_ON_MASK	Npdrv2	SUCCESS		
233	0.00000363	Vkt5Easy2.exe	IOCTL_SERIAL_SET_DTR	Npdrv2	SUCCESS		
234	0.00000196	Vkt5Easy2.exe	IOCTL_SERIAL_SET_RTS	Npdrv2	SUCCESS		
235	0.00065455	Vkt5Easy2.exe	IRP_MJ_WRITE	Npdrv2	SUCCESS	Length 8: 00 03 10 0E 00 FE A0 98 	
236	0.00000503	Vkt5Easy2.exe	IOCTL_SERIAL_GET_COMMSTATUS	Npdrv2	SUCCESS		
237	0.04284092	Vkt5Easy2.exe	IRP_MJ_READ	Npdrv2	TIMEOUT	Length 104: 00 03 FE FF FF 7D 02 FF FF FF FF FF FF FF FF FF FF FF FF FF FF FF FF FF FF FF FF FF FF FF FF FF FF FF FF FF FF FF FF FF FF FF FF 00 00 00 00 00 00 00 00 00 00 00 00 00 00 00 00 FF FF FF FF FF FF FF FF FF FF FF FF FF FF FF FF FF FF FF FF FF FF FF FF FF FF FF FF FF FF FF FF FF FF FF FF FF FF FF FF FF FF FF FF FF 	
238	0.07517687	Vkt5Easy2.exe	IOCTL_SERIAL_WAIT_ON_MASK	Npdrv2	SUCCESS		
239	0.00000531	Vkt5Easy2.exe	IOCTL_SERIAL_GET_COMMSTATUS	Npdrv2	SUCCESS		
240	0.03299498	Vkt5Easy2.exe	IRP_MJ_READ	Npdrv2	TIMEOUT	Length 104: FF FF 00 00 00 00 00 00 00 00 00 00 00 00 00 00 00 00 FF FF FF FF FF FF FF FF FF FF FF FF FF FF FF FF FF FF FF FF FF FF FF FF FF FF FF FF FF FF FF FF FF FF FF FF FF FF FF FF FF FF FF FF FF FF FF 00 00 00 00 00 00 00 00 00 00 00 00 00 00 00 00 FF FF FF FF FF FF FF FF FF FF FF FF FF FF FF FF FF FF FF FF FF FF FF 	
241	0.02882685	Vkt5Easy2.exe	IOCTL_SERIAL_WAIT_ON_MASK	Npdrv2	SUCCESS		
242	0.00000447	Vkt5Easy2.exe	IOCTL_SERIAL_GET_COMMSTATUS	Npdrv2	SUCCESS		
243	0.03222449	Vkt5Easy2.exe	IRP_MJ_READ	Npdrv2	TIMEOUT	Length 51: FF FF FF FF FF FF FF FF FF FF FF FF FF FF FF FF FF FF FF FF FF FF FF FF 00 00 00 00 00 00 00 00 00 00 00 00 00 00 00 00 FF FF FF FF FF FF FF FF FF 6D 9D 	
244	0.13909561	Vkt5Easy2.exe	IOCTL_SERIAL_PURGE	Npdrv2	SUCCESS	Purge: TXCLEAR 	
245	0.80049308	Vkt5Easy2.exe	IOCTL_SERIAL_WAIT_ON_MASK	Npdrv2	SUCCESS		
246	0.00000391	Vkt5Easy2.exe	IOCTL_SERIAL_SET_DTR	Npdrv2	SUCCESS		
247	0.00000168	Vkt5Easy2.exe	IOCTL_SERIAL_SET_RTS	Npdrv2	SUCCESS		
248	0.00071573	Vkt5Easy2.exe	IRP_MJ_WRITE	Npdrv2	SUCCESS	Length 8: 00 03 10 0F 00 FE F1 58 	
249	0.00000531	Vkt5Easy2.exe	IOCTL_SERIAL_GET_COMMSTATUS	Npdrv2	SUCCESS		
250	0.04169357	Vkt5Easy2.exe	IRP_MJ_READ	Npdrv2	TIMEOUT	Length 104: 00 03 94 FF FF FF FF FF FF FF FF FF FF FF FF FF FF FF FF FF FF FF FF FF FF FF FF FF FF FF FF FF FF FF FF FF FF FF FF FF FF 00 00 00 00 00 00 00 00 00 00 00 00 00 00 00 00 FF FF FF FF FF FF FF FF FF FF FF FF FF FF FF FF FF FF FF FF FF FF FF FF FF FF FF FF FF FF FF 01 07 DF 06 04 10 1B 16 00 00 FF FF FF FF FF FF 	
251	0.01819645	Vkt5Easy2.exe	IOCTL_SERIAL_WAIT_ON_MASK	Npdrv2	SUCCESS		
252	0.00000531	Vkt5Easy2.exe	IOCTL_SERIAL_GET_COMMSTATUS	Npdrv2	SUCCESS		
253	0.04313006	Vkt5Easy2.exe	IRP_MJ_READ	Npdrv2	TIMEOUT	Length 49: 00 00 00 00 00 00 00 00 20 20 20 20 20 20 20 20 20 20 20 20 20 20 20 00 00 30 30 30 30 30 30 2F 30 30 30 30 30 30 00 02 02 02 02 02 02 02 02 45 28 	
254	15.02919086	Vkt5Easy2.exe	IOCTL_SERIAL_WAIT_ON_MASK	Npdrv2	SUCCESS		
255	0.13982084	Vkt5Easy2.exe	IOCTL_SERIAL_PURGE	Npdrv2	SUCCESS	Purge: TXCLEAR 	
256	0.00000363	Vkt5Easy2.exe	IOCTL_SERIAL_SET_DTR	Npdrv2	SUCCESS		
257	0.00000140	Vkt5Easy2.exe	IOCTL_SERIAL_SET_RTS	Npdrv2	SUCCESS		
258	0.00065595	Vkt5Easy2.exe	IRP_MJ_WRITE	Npdrv2	SUCCESS	Length 8: 00 03 0B 00 00 0A C6 38 	
259	0.00000503	Vkt5Easy2.exe	IOCTL_SERIAL_GET_COMMSTATUS	Npdrv2	SUCCESS		
260	0.04461852	Vkt5Easy2.exe	IRP_MJ_READ	Npdrv2	TIMEOUT	Length 15: 00 03 0A 07 DF 00 06 00 09 00 0B 00 34 81 CC 	
261	9.20452320	Vkt5Easy2.exe	IOCTL_SERIAL_WAIT_ON_MASK	Npdrv2	SUCCESS		
262	0.13975882	Vkt5Easy2.exe	IOCTL_SERIAL_PURGE	Npdrv2	SUCCESS	Purge: TXCLEAR 	
263	0.00000335	Vkt5Easy2.exe	IOCTL_SERIAL_SET_DTR	Npdrv2	SUCCESS		
264	0.00000168	Vkt5Easy2.exe	IOCTL_SERIAL_SET_RTS	Npdrv2	SUCCESS		
265	0.00072048	Vkt5Easy2.exe	IRP_MJ_WRITE	Npdrv2	SUCCESS	Length 8: 00 03 14 00 00 00 41 EB 	
266	0.00000531	Vkt5Easy2.exe	IOCTL_SERIAL_GET_COMMSTATUS	Npdrv2	SUCCESS		
267	0.04141336	Vkt5Easy2.exe	IRP_MJ_READ	Npdrv2	TIMEOUT	Length 35: 00 03 1E 07 DF 00 06 00 04 00 10 00 1B 07 DF 00 06 00 09 00 0A 00 34 07 DF 00 06 00 04 00 10 00 1B B9 0C 	
268	10.02976915	Vkt5Easy2.exe	IOCTL_SERIAL_WAIT_ON_MASK	Npdrv2	SUCCESS		
269	0.13952807	Vkt5Easy2.exe	IOCTL_SERIAL_PURGE	Npdrv2	SUCCESS	Purge: TXCLEAR 	
270	0.00000335	Vkt5Easy2.exe	IOCTL_SERIAL_SET_DTR	Npdrv2	SUCCESS		
271	0.00000140	Vkt5Easy2.exe	IOCTL_SERIAL_SET_RTS	Npdrv2	SUCCESS		
272	0.00065344	Vkt5Easy2.exe	IRP_MJ_WRITE	Npdrv2	SUCCESS	Length 8: 00 03 00 1C 00 00 85 DD 	
273	0.00000503	Vkt5Easy2.exe	IOCTL_SERIAL_GET_COMMSTATUS	Npdrv2	SUCCESS		
274	0.04434279	Vkt5Easy2.exe	IRP_MJ_READ	Npdrv2	TIMEOUT	Length 49: 00 03 2C 41 CD B5 17 40 20 00 00 00 00 00 00 41 BA 31 6B 40 B9 99 9A 00 00 00 00 00 00 00 00 00 80 00 00 00 00 00 00 00 00 00 00 00 00 00 00 DF 93 	
275	0.13879446	Vkt5Easy2.exe	IOCTL_SERIAL_PURGE	Npdrv2	SUCCESS	Purge: TXCLEAR 	
276	0.82207180	Vkt5Easy2.exe	IOCTL_SERIAL_WAIT_ON_MASK	Npdrv2	SUCCESS		
277	0.00000363	Vkt5Easy2.exe	IOCTL_SERIAL_SET_DTR	Npdrv2	SUCCESS		
278	0.00000140	Vkt5Easy2.exe	IOCTL_SERIAL_SET_RTS	Npdrv2	SUCCESS		
279	0.00065036	Vkt5Easy2.exe	IRP_MJ_WRITE	Npdrv2	SUCCESS	Length 8: 00 03 04 01 00 00 14 EB 	
280	0.00000503	Vkt5Easy2.exe	IOCTL_SERIAL_GET_COMMSTATUS	Npdrv2	SUCCESS		
281	0.03597049	Vkt5Easy2.exe	IRP_MJ_READ	Npdrv2	TIMEOUT	Length 47: 00 03 2A 00 00 00 00 00 00 00 54 00 00 00 00 00 57 00 00 00 00 00 00 00 00 00 00 00 00 00 00 00 00 00 67 00 00 00 00 00 00 00 00 00 00 3E 5D 	
282	0.13904086	Vkt5Easy2.exe	IOCTL_SERIAL_PURGE	Npdrv2	SUCCESS	Purge: TXCLEAR 	
283	0.67475615	Vkt5Easy2.exe	IOCTL_SERIAL_WAIT_ON_MASK	Npdrv2	SUCCESS		
284	0.00000363	Vkt5Easy2.exe	IOCTL_SERIAL_SET_DTR	Npdrv2	SUCCESS		
285	0.00000168	Vkt5Easy2.exe	IOCTL_SERIAL_SET_RTS	Npdrv2	SUCCESS		
286	0.00070372	Vkt5Easy2.exe	IRP_MJ_WRITE	Npdrv2	SUCCESS	Length 8: 00 03 0B 00 00 0A C6 38 	
287	0.00000531	Vkt5Easy2.exe	IOCTL_SERIAL_GET_COMMSTATUS	Npdrv2	SUCCESS		
288	0.04265011	Vkt5Easy2.exe	IRP_MJ_READ	Npdrv2	TIMEOUT	Length 15: 00 03 0A 07 DF 00 06 00 09 00 0B 00 35 40 0C 	
289	0.13854806	Vkt5Easy2.exe	IOCTL_SERIAL_PURGE	Npdrv2	SUCCESS	Purge: TXCLEAR 	
290	0.83631663	Vkt5Easy2.exe	IOCTL_SERIAL_WAIT_ON_MASK	Npdrv2	SUCCESS		
291	0.00000363	Vkt5Easy2.exe	IOCTL_SERIAL_SET_DTR	Npdrv2	SUCCESS		
292	0.00000168	Vkt5Easy2.exe	IOCTL_SERIAL_SET_RTS	Npdrv2	SUCCESS		
293	0.00065176	Vkt5Easy2.exe	IRP_MJ_WRITE	Npdrv2	SUCCESS	Length 8: 00 03 80 1C 00 00 AC 1D 	
294	0.00000475	Vkt5Easy2.exe	IOCTL_SERIAL_GET_COMMSTATUS	Npdrv2	SUCCESS		
295	0.03736089	Vkt5Easy2.exe	IRP_MJ_READ	Npdrv2	TIMEOUT	Length 77: 00 03 48 41 CF AE 14 40 20 00 00 38 6D 00 00 00 00 00 4A 41 B8 51 EC 40 B9 99 9A 38 6D 00 00 00 00 00 4A 00 00 00 00 00 00 00 00 38 7D 00 00 00 00 00 4B 38 6D 00 00 00 00 00 4A 38 6D 00 00 00 00 00 4A 38 00 00 00 00 00 00 00 CD E4 	
296	0.13890704	Vkt5Easy2.exe	IOCTL_SERIAL_PURGE	Npdrv2	SUCCESS	Purge: TXCLEAR 	
297	0.62207655	Vkt5Easy2.exe	IOCTL_SERIAL_WAIT_ON_MASK	Npdrv2	SUCCESS		
298	0.00000363	Vkt5Easy2.exe	IOCTL_SERIAL_SET_DTR	Npdrv2	SUCCESS		
299	0.00000140	Vkt5Easy2.exe	IOCTL_SERIAL_SET_RTS	Npdrv2	SUCCESS		
300	0.00065455	Vkt5Easy2.exe	IRP_MJ_WRITE	Npdrv2	SUCCESS	Length 8: 00 03 0B 00 00 0A C6 38 	
301	0.00000475	Vkt5Easy2.exe	IOCTL_SERIAL_GET_COMMSTATUS	Npdrv2	SUCCESS		
302	0.03287010	Vkt5Easy2.exe	IRP_MJ_READ	Npdrv2	TIMEOUT	Length 15: 00 03 0A 07 DF 00 06 00 09 00 0B 00 35 40 0C 	
303	6.86023447	Vkt5Easy2.exe	IOCTL_SERIAL_WAIT_ON_MASK	Npdrv2	SUCCESS		
304	0.13969401	Vkt5Easy2.exe	IOCTL_SERIAL_PURGE	Npdrv2	SUCCESS	Purge: TXCLEAR 	
305	0.00000363	Vkt5Easy2.exe	IOCTL_SERIAL_SET_DTR	Npdrv2	SUCCESS		
306	0.00000140	Vkt5Easy2.exe	IOCTL_SERIAL_SET_RTS	Npdrv2	SUCCESS		
307	0.00065539	Vkt5Easy2.exe	IRP_MJ_WRITE	Npdrv2	SUCCESS	Length 8: 00 03 00 1C 00 00 85 DD 	
308	0.00000419	Vkt5Easy2.exe	IOCTL_SERIAL_GET_COMMSTATUS	Npdrv2	SUCCESS		
309	0.04508310	Vkt5Easy2.exe	IRP_MJ_READ	Npdrv2	TIMEOUT	Length 49: 00 03 2C 41 CD B5 17 40 20 00 00 00 00 00 00 41 BA 41 85 40 B9 99 9A 00 00 00 00 00 00 00 00 00 80 00 00 00 00 00 00 00 00 00 00 00 00 00 00 0B 31 	
310	0.13895705	Vkt5Easy2.exe	IOCTL_SERIAL_PURGE	Npdrv2	SUCCESS	Purge: TXCLEAR 	
311	0.81975838	Vkt5Easy2.exe	IOCTL_SERIAL_WAIT_ON_MASK	Npdrv2	SUCCESS		
312	0.00000363	Vkt5Easy2.exe	IOCTL_SERIAL_SET_DTR	Npdrv2	SUCCESS		
313	0.00000196	Vkt5Easy2.exe	IOCTL_SERIAL_SET_RTS	Npdrv2	SUCCESS		
314	0.00065316	Vkt5Easy2.exe	IRP_MJ_WRITE	Npdrv2	SUCCESS	Length 8: 00 03 04 01 00 00 14 EB 	
315	0.00000503	Vkt5Easy2.exe	IOCTL_SERIAL_GET_COMMSTATUS	Npdrv2	SUCCESS		
316	0.03807188	Vkt5Easy2.exe	IRP_MJ_READ	Npdrv2	TIMEOUT	Length 47: 00 03 2A 00 00 00 00 00 00 00 54 00 00 00 00 00 57 00 00 00 00 00 00 00 00 00 00 00 00 00 00 00 00 00 67 00 00 00 00 00 00 00 00 00 00 3E 5D 	
317	0.13902102	Vkt5Easy2.exe	IOCTL_SERIAL_PURGE	Npdrv2	SUCCESS	Purge: TXCLEAR 	
318	0.67317299	Vkt5Easy2.exe	IOCTL_SERIAL_WAIT_ON_MASK	Npdrv2	SUCCESS		
319	0.00000363	Vkt5Easy2.exe	IOCTL_SERIAL_SET_DTR	Npdrv2	SUCCESS		
320	0.00000196	Vkt5Easy2.exe	IOCTL_SERIAL_SET_RTS	Npdrv2	SUCCESS		
321	0.00065260	Vkt5Easy2.exe	IRP_MJ_WRITE	Npdrv2	SUCCESS	Length 8: 00 03 0B 00 00 0A C6 38 	
322	0.00000475	Vkt5Easy2.exe	IOCTL_SERIAL_GET_COMMSTATUS	Npdrv2	SUCCESS		
323	0.04406398	Vkt5Easy2.exe	IRP_MJ_READ	Npdrv2	TIMEOUT	Length 15: 00 03 0A 07 DF 00 06 00 09 00 0B 00 35 40 0C 	
324	0.13903080	Vkt5Easy2.exe	IOCTL_SERIAL_PURGE	Npdrv2	SUCCESS	Purge: TXCLEAR 	
325	0.83692983	Vkt5Easy2.exe	IOCTL_SERIAL_WAIT_ON_MASK	Npdrv2	SUCCESS		
326	0.00000391	Vkt5Easy2.exe	IOCTL_SERIAL_SET_DTR	Npdrv2	SUCCESS		
327	0.00000140	Vkt5Easy2.exe	IOCTL_SERIAL_SET_RTS	Npdrv2	SUCCESS		
328	0.00065316	Vkt5Easy2.exe	IRP_MJ_WRITE	Npdrv2	SUCCESS	Length 8: 00 03 80 1C 00 00 AC 1D 	
329	0.00000503	Vkt5Easy2.exe	IOCTL_SERIAL_GET_COMMSTATUS	Npdrv2	SUCCESS		
330	0.03671919	Vkt5Easy2.exe	IRP_MJ_READ	Npdrv2	TIMEOUT	Length 77: 00 03 48 41 CF AE 14 40 20 00 00 38 6D 00 00 00 00 00 4A 41 B8 51 EC 40 B9 99 9A 38 6D 00 00 00 00 00 4A 00 00 00 00 00 00 00 00 38 7D 00 00 00 00 00 4B 38 6D 00 00 00 00 00 4A 38 6D 00 00 00 00 00 4A 38 00 00 00 00 00 00 00 CD E4 	
331	0.13892157	Vkt5Easy2.exe	IOCTL_SERIAL_PURGE	Npdrv2	SUCCESS	Purge: TXCLEAR 	
332	0.62153458	Vkt5Easy2.exe	IOCTL_SERIAL_WAIT_ON_MASK	Npdrv2	SUCCESS		
333	0.00000363	Vkt5Easy2.exe	IOCTL_SERIAL_SET_DTR	Npdrv2	SUCCESS		
334	0.00000168	Vkt5Easy2.exe	IOCTL_SERIAL_SET_RTS	Npdrv2	SUCCESS		
335	0.00070232	Vkt5Easy2.exe	IRP_MJ_WRITE	Npdrv2	SUCCESS	Length 8: 00 03 0B 00 00 0A C6 38 	
336	0.00000503	Vkt5Easy2.exe	IOCTL_SERIAL_GET_COMMSTATUS	Npdrv2	SUCCESS		
337	0.03328160	Vkt5Easy2.exe	IRP_MJ_READ	Npdrv2	TIMEOUT	Length 15: 00 03 0A 07 DF 00 06 00 09 00 0B 00 35 40 0C 	
338	17.19406405	Vkt5Easy2.exe	IOCTL_SERIAL_WAIT_ON_MASK	Npdrv2	SUCCESS		
339	0.14030582	Vkt5Easy2.exe	IOCTL_SERIAL_PURGE	Npdrv2	SUCCESS	Purge: TXCLEAR 	
340	0.00000391	Vkt5Easy2.exe	IOCTL_SERIAL_SET_DTR	Npdrv2	SUCCESS		
341	0.00000196	Vkt5Easy2.exe	IOCTL_SERIAL_SET_RTS	Npdrv2	SUCCESS		
342	0.00065483	Vkt5Easy2.exe	IRP_MJ_WRITE	Npdrv2	SUCCESS	Length 8: 00 05 11 00 00 20 C8 FF 	
343	0.00000531	Vkt5Easy2.exe	IOCTL_SERIAL_GET_COMMSTATUS	Npdrv2	SUCCESS		
344	0.03995452	Vkt5Easy2.exe	IRP_MJ_READ	Npdrv2	TIMEOUT	Length 104: 00 05 05 07 DF 06 04 10 00 01 9A 37 00 00 00 00 00 00 00 00 00 00 00 00 38 00 00 00 00 00 00 00 38 00 00 00 00 00 00 00 00 00 00 00 00 00 00 00 00 00 00 00 38 00 00 00 00 00 00 00 38 00 00 00 00 00 00 00 00 00 00 00 00 00 00 00 00 00 00 00 38 00 00 00 00 00 00 00 38 00 00 00 00 00 00 00 00 00 00 00 00 00 00 00 	
345	0.07860412	Vkt5Easy2.exe	IOCTL_SERIAL_WAIT_ON_MASK	Npdrv2	SUCCESS		
346	0.00000531	Vkt5Easy2.exe	IOCTL_SERIAL_GET_COMMSTATUS	Npdrv2	SUCCESS		
347	0.04500041	Vkt5Easy2.exe	IRP_MJ_READ	Npdrv2	TIMEOUT	Length 104: 00 00 00 00 38 00 00 00 00 00 00 00 38 00 00 00 00 00 00 00 00 00 00 1E 00 00 1E 00 04 72 09 C4 38 00 00 00 00 00 00 00 38 00 00 00 00 00 00 00 00 00 00 00 00 00 1E 00 04 6D 16 A8 38 00 00 00 00 00 00 00 38 00 00 00 00 00 00 00 00 00 00 00 00 00 00 00 00 00 00 00 38 00 00 00 00 00 00 00 38 00 00 00 00 00 00 00 	
348	0.02508699	Vkt5Easy2.exe	IOCTL_SERIAL_WAIT_ON_MASK	Npdrv2	SUCCESS		
349	0.00000475	Vkt5Easy2.exe	IOCTL_SERIAL_GET_COMMSTATUS	Npdrv2	SUCCESS		
350	0.03623505	Vkt5Easy2.exe	IRP_MJ_READ	Npdrv2	TIMEOUT	Length 58: 00 00 00 00 00 00 00 00 00 00 00 00 38 00 00 00 00 00 00 00 38 00 00 00 00 00 00 00 00 00 00 00 00 00 00 00 00 11 00 00 00 00 00 00 00 00 00 00 00 00 00 00 00 00 00 00 A4 3B 	
351	0.13830221	Vkt5Easy2.exe	IOCTL_SERIAL_PURGE	Npdrv2	SUCCESS	Purge: TXCLEAR 	
352	0.80359375	Vkt5Easy2.exe	IOCTL_SERIAL_WAIT_ON_MASK	Npdrv2	SUCCESS		
353	0.00000335	Vkt5Easy2.exe	IOCTL_SERIAL_SET_DTR	Npdrv2	SUCCESS		
354	0.00000168	Vkt5Easy2.exe	IOCTL_SERIAL_SET_RTS	Npdrv2	SUCCESS		
355	0.00065511	Vkt5Easy2.exe	IRP_MJ_WRITE	Npdrv2	SUCCESS	Length 8: 00 05 11 00 00 21 09 3F 	
356	0.00000503	Vkt5Easy2.exe	IOCTL_SERIAL_GET_COMMSTATUS	Npdrv2	SUCCESS		
357	0.03863424	Vkt5Easy2.exe	IRP_MJ_READ	Npdrv2	TIMEOUT	Length 104: 00 05 05 07 DF 06 04 11 00 01 5A 66 00 00 00 00 00 00 00 00 00 00 00 00 38 10 00 00 00 00 00 01 38 10 00 00 00 00 00 01 00 00 00 00 00 00 00 00 00 00 00 00 38 10 00 00 00 00 00 01 38 10 00 00 00 00 00 01 00 00 00 00 00 00 00 00 00 00 00 00 38 10 00 00 00 00 00 01 38 10 00 00 00 00 00 01 00 00 00 00 00 00 00 00 	
358	0.07917459	Vkt5Easy2.exe	IOCTL_SERIAL_WAIT_ON_MASK	Npdrv2	SUCCESS		
359	0.00000503	Vkt5Easy2.exe	IOCTL_SERIAL_GET_COMMSTATUS	Npdrv2	SUCCESS		
360	0.04462159	Vkt5Easy2.exe	IRP_MJ_READ	Npdrv2	TIMEOUT	Length 104: 00 00 00 00 38 10 00 00 00 00 00 01 38 10 00 00 00 00 00 01 00 00 00 3C 00 00 3C 00 04 59 09 C4 38 10 00 00 00 00 00 01 38 10 00 00 00 00 00 01 00 00 00 00 00 00 3C 00 04 5C 16 A8 38 10 00 00 00 00 00 01 38 10 00 00 00 00 00 01 00 00 00 00 00 00 00 00 00 00 00 00 38 10 00 00 00 00 00 01 38 10 00 00 00 00 00 01 	
361	0.02598487	Vkt5Easy2.exe	IOCTL_SERIAL_WAIT_ON_MASK	Npdrv2	SUCCESS		
362	0.00000475	Vkt5Easy2.exe	IOCTL_SERIAL_GET_COMMSTATUS	Npdrv2	SUCCESS		
363	0.03531678	Vkt5Easy2.exe	IRP_MJ_READ	Npdrv2	TIMEOUT	Length 58: 00 00 00 00 00 00 00 00 00 00 00 00 38 10 00 00 00 00 00 01 38 10 00 00 00 00 00 01 00 00 00 00 00 00 00 00 00 8A 00 00 00 00 00 00 00 00 00 00 00 00 00 00 00 00 00 00 EE E4 	
364	0.13959009	Vkt5Easy2.exe	IOCTL_SERIAL_PURGE	Npdrv2	SUCCESS	Purge: TXCLEAR 	
365	0.80631505	Vkt5Easy2.exe	IOCTL_SERIAL_WAIT_ON_MASK	Npdrv2	SUCCESS		
366	0.00000363	Vkt5Easy2.exe	IOCTL_SERIAL_SET_DTR	Npdrv2	SUCCESS		
367	0.00000196	Vkt5Easy2.exe	IOCTL_SERIAL_SET_RTS	Npdrv2	SUCCESS		
368	0.00065204	Vkt5Easy2.exe	IRP_MJ_WRITE	Npdrv2	SUCCESS	Length 8: 00 05 11 00 00 22 49 3E 	
369	0.00000475	Vkt5Easy2.exe	IOCTL_SERIAL_GET_COMMSTATUS	Npdrv2	SUCCESS		
370	0.03607553	Vkt5Easy2.exe	IRP_MJ_READ	Npdrv2	TIMEOUT	Length 104: 00 05 05 07 DF 06 04 12 00 02 5B D6 00 00 00 00 00 00 00 00 00 00 00 00 38 18 00 00 00 00 00 02 38 18 00 00 00 00 00 02 00 00 00 00 00 00 00 00 00 00 00 00 38 18 00 00 00 00 00 02 38 18 00 00 00 00 00 02 00 00 00 00 00 00 00 00 00 00 00 00 38 18 00 00 00 00 00 02 38 18 00 00 00 00 00 02 00 00 00 00 00 00 00 00 	
371	0.08172100	Vkt5Easy2.exe	IOCTL_SERIAL_WAIT_ON_MASK	Npdrv2	SUCCESS		
372	0.00000475	Vkt5Easy2.exe	IOCTL_SERIAL_GET_COMMSTATUS	Npdrv2	SUCCESS		
373	0.04213133	Vkt5Easy2.exe	IRP_MJ_READ	Npdrv2	TIMEOUT	Length 104: 00 00 00 00 38 18 00 00 00 00 00 02 38 18 00 00 00 00 00 02 00 00 00 3C 00 00 3C 00 04 95 09 C4 38 18 00 00 00 00 00 02 38 18 00 00 00 00 00 02 00 00 00 00 00 00 3C 00 04 97 16 A8 38 18 00 00 00 00 00 02 38 18 00 00 00 00 00 02 00 00 00 00 00 00 00 00 00 00 00 00 38 18 00 00 00 00 00 02 38 18 00 00 00 00 00 02 	
374	0.02799909	Vkt5Easy2.exe	IOCTL_SERIAL_WAIT_ON_MASK	Npdrv2	SUCCESS		
375	0.00000503	Vkt5Easy2.exe	IOCTL_SERIAL_GET_COMMSTATUS	Npdrv2	SUCCESS		
376	0.03322489	Vkt5Easy2.exe	IRP_MJ_READ	Npdrv2	TIMEOUT	Length 58: 00 00 00 00 00 00 00 00 00 00 00 00 38 18 00 00 00 00 00 02 38 18 00 00 00 00 00 02 00 00 00 00 00 00 00 00 00 75 00 00 00 00 00 00 00 00 00 00 00 00 00 00 00 00 00 00 9C E6 	
377	0.13954232	Vkt5Easy2.exe	IOCTL_SERIAL_PURGE	Npdrv2	SUCCESS	Purge: TXCLEAR 	
378	0.80812086	Vkt5Easy2.exe	IOCTL_SERIAL_WAIT_ON_MASK	Npdrv2	SUCCESS		
379	0.00000363	Vkt5Easy2.exe	IOCTL_SERIAL_SET_DTR	Npdrv2	SUCCESS		
380	0.00000168	Vkt5Easy2.exe	IOCTL_SERIAL_SET_RTS	Npdrv2	SUCCESS		
381	0.00065763	Vkt5Easy2.exe	IRP_MJ_WRITE	Npdrv2	SUCCESS	Length 8: 00 05 11 00 00 23 88 FE 	
382	0.00000447	Vkt5Easy2.exe	IOCTL_SERIAL_GET_COMMSTATUS	Npdrv2	SUCCESS		
383	0.03434682	Vkt5Easy2.exe	IRP_MJ_READ	Npdrv2	TIMEOUT	Length 104: 00 05 05 07 DF 06 04 13 00 02 9B 87 00 00 00 00 00 00 00 00 00 00 00 00 38 20 00 00 00 00 00 02 38 20 00 00 00 00 00 02 00 00 00 00 00 00 00 00 00 00 00 00 38 20 00 00 00 00 00 02 38 20 00 00 00 00 00 02 00 00 00 00 00 00 00 00 00 00 00 00 38 20 00 00 00 00 00 02 38 20 00 00 00 00 00 02 00 00 00 00 00 00 00 00 	
384	0.08297451	Vkt5Easy2.exe	IOCTL_SERIAL_WAIT_ON_MASK	Npdrv2	SUCCESS		
385	0.00000531	Vkt5Easy2.exe	IOCTL_SERIAL_GET_COMMSTATUS	Npdrv2	SUCCESS		
386	0.04031490	Vkt5Easy2.exe	IRP_MJ_READ	Npdrv2	TIMEOUT	Length 104: 00 00 00 00 38 20 00 00 00 00 00 02 38 20 00 00 00 00 00 02 00 00 00 3C 00 00 3C 00 04 FF 09 C4 38 20 00 00 00 00 00 02 38 20 00 00 00 00 00 02 00 00 00 00 00 00 3C 00 05 0E 16 A8 38 20 00 00 00 00 00 02 38 20 00 00 00 00 00 02 00 00 00 00 00 00 00 00 00 00 00 00 38 20 00 00 00 00 00 02 38 20 00 00 00 00 00 02 	
387	0.02980379	Vkt5Easy2.exe	IOCTL_SERIAL_WAIT_ON_MASK	Npdrv2	SUCCESS		
388	0.00000447	Vkt5Easy2.exe	IOCTL_SERIAL_GET_COMMSTATUS	Npdrv2	SUCCESS		
389	0.03152691	Vkt5Easy2.exe	IRP_MJ_READ	Npdrv2	TIMEOUT	Length 58: 00 00 00 00 00 00 00 00 00 00 00 00 38 20 00 00 00 00 00 02 38 20 00 00 00 00 00 02 00 00 00 00 00 00 00 00 00 24 00 00 00 00 00 00 00 00 00 00 00 00 00 00 00 00 00 00 D9 12 	
390	0.13963143	Vkt5Easy2.exe	IOCTL_SERIAL_PURGE	Npdrv2	SUCCESS	Purge: TXCLEAR 	
391	0.80893438	Vkt5Easy2.exe	IOCTL_SERIAL_WAIT_ON_MASK	Npdrv2	SUCCESS		
392	0.00000335	Vkt5Easy2.exe	IOCTL_SERIAL_SET_DTR	Npdrv2	SUCCESS		
393	0.00000196	Vkt5Easy2.exe	IOCTL_SERIAL_SET_RTS	Npdrv2	SUCCESS		
394	0.00065148	Vkt5Easy2.exe	IRP_MJ_WRITE	Npdrv2	SUCCESS	Length 8: 00 05 11 00 00 24 C9 3C 	
395	0.00000503	Vkt5Easy2.exe	IOCTL_SERIAL_GET_COMMSTATUS	Npdrv2	SUCCESS		
396	0.03353471	Vkt5Easy2.exe	IRP_MJ_READ	Npdrv2	TIMEOUT	Length 104: 00 05 05 07 DF 06 04 14 00 03 9A F7 00 00 00 00 00 00 00 00 00 00 00 00 38 24 00 00 00 00 00 03 38 24 00 00 00 00 00 03 00 00 00 00 00 00 00 00 00 00 00 00 38 24 00 00 00 00 00 03 38 24 00 00 00 00 00 03 00 00 00 00 00 00 00 00 00 00 00 00 38 24 00 00 00 00 00 03 38 24 00 00 00 00 00 03 00 00 00 00 00 00 00 00 	
397	0.08502868	Vkt5Easy2.exe	IOCTL_SERIAL_WAIT_ON_MASK	Npdrv2	SUCCESS		
398	0.00000475	Vkt5Easy2.exe	IOCTL_SERIAL_GET_COMMSTATUS	Npdrv2	SUCCESS		
399	0.03878174	Vkt5Easy2.exe	IRP_MJ_READ	Npdrv2	TIMEOUT	Length 104: 00 00 00 00 38 24 00 00 00 00 00 03 38 24 00 00 00 00 00 03 00 00 00 3C 00 00 3C 00 05 04 09 C4 38 24 00 00 00 00 00 03 38 24 00 00 00 00 00 03 00 00 00 00 00 00 3C 00 05 0B 16 A8 38 24 00 00 00 00 00 03 38 24 00 00 00 00 00 03 00 00 00 00 00 00 00 00 00 00 00 00 38 24 00 00 00 00 00 03 38 24 00 00 00 00 00 03 	
400	0.03130957	Vkt5Easy2.exe	IOCTL_SERIAL_WAIT_ON_MASK	Npdrv2	SUCCESS		
401	0.00000447	Vkt5Easy2.exe	IOCTL_SERIAL_GET_COMMSTATUS	Npdrv2	SUCCESS		
402	0.04562312	Vkt5Easy2.exe	IRP_MJ_READ	Npdrv2	TIMEOUT	Length 58: 00 00 00 00 00 00 00 00 00 00 00 00 38 24 00 00 00 00 00 03 38 24 00 00 00 00 00 03 00 00 00 00 00 00 00 00 00 AF 00 00 00 00 00 00 00 00 00 00 00 00 00 00 00 00 00 00 63 AD 	
403	0.13876373	Vkt5Easy2.exe	IOCTL_SERIAL_PURGE	Npdrv2	SUCCESS	Purge: TXCLEAR 	
404	0.79515357	Vkt5Easy2.exe	IOCTL_SERIAL_WAIT_ON_MASK	Npdrv2	SUCCESS		
405	0.00000307	Vkt5Easy2.exe	IOCTL_SERIAL_SET_DTR	Npdrv2	SUCCESS		
406	0.00000168	Vkt5Easy2.exe	IOCTL_SERIAL_SET_RTS	Npdrv2	SUCCESS		
407	0.00066098	Vkt5Easy2.exe	IRP_MJ_WRITE	Npdrv2	SUCCESS	Length 8: 00 05 11 00 00 25 08 FC 	
408	0.00000475	Vkt5Easy2.exe	IOCTL_SERIAL_GET_COMMSTATUS	Npdrv2	SUCCESS		
409	0.03169565	Vkt5Easy2.exe	IRP_MJ_READ	Npdrv2	TIMEOUT	Length 104: 00 05 05 07 DF 06 04 15 00 03 5A A6 00 00 00 00 00 00 00 00 00 00 00 00 38 28 00 00 00 00 00 04 38 28 00 00 00 00 00 04 00 00 00 00 00 00 00 00 00 00 00 00 38 28 00 00 00 00 00 04 38 28 00 00 00 00 00 04 00 00 00 00 00 00 00 00 00 00 00 00 38 28 00 00 00 00 00 04 38 28 00 00 00 00 00 04 00 00 00 00 00 00 00 00 	
410	0.08613162	Vkt5Easy2.exe	IOCTL_SERIAL_WAIT_ON_MASK	Npdrv2	SUCCESS		
411	0.00000475	Vkt5Easy2.exe	IOCTL_SERIAL_GET_COMMSTATUS	Npdrv2	SUCCESS		
412	0.03766568	Vkt5Easy2.exe	IRP_MJ_READ	Npdrv2	TIMEOUT	Length 104: 00 00 00 00 38 28 00 00 00 00 00 04 38 28 00 00 00 00 00 04 00 00 00 3C 00 00 3C 00 05 00 09 C4 38 28 00 00 00 00 00 04 38 28 00 00 00 00 00 04 00 00 00 00 00 00 3C 00 05 07 16 A8 38 28 00 00 00 00 00 04 38 28 00 00 00 00 00 04 00 00 00 00 00 00 00 00 00 00 00 00 38 28 00 00 00 00 00 04 38 28 00 00 00 00 00 04 	
413	0.03245189	Vkt5Easy2.exe	IOCTL_SERIAL_WAIT_ON_MASK	Npdrv2	SUCCESS		
414	0.00000503	Vkt5Easy2.exe	IOCTL_SERIAL_GET_COMMSTATUS	Npdrv2	SUCCESS		
415	0.04451320	Vkt5Easy2.exe	IRP_MJ_READ	Npdrv2	TIMEOUT	Length 58: 00 00 00 00 00 00 00 00 00 00 00 00 38 28 00 00 00 00 00 04 38 28 00 00 00 00 00 04 00 00 00 00 00 00 00 00 00 D1 00 00 00 00 00 00 00 00 00 00 00 00 00 00 00 00 00 00 FE 29 	
416	0.13821282	Vkt5Easy2.exe	IOCTL_SERIAL_PURGE	Npdrv2	SUCCESS	Purge: TXCLEAR 	
417	0.79740218	Vkt5Easy2.exe	IOCTL_SERIAL_WAIT_ON_MASK	Npdrv2	SUCCESS		
418	0.00000419	Vkt5Easy2.exe	IOCTL_SERIAL_SET_DTR	Npdrv2	SUCCESS		
419	0.00000168	Vkt5Easy2.exe	IOCTL_SERIAL_SET_RTS	Npdrv2	SUCCESS		
420	0.00065316	Vkt5Easy2.exe	IRP_MJ_WRITE	Npdrv2	SUCCESS	Length 8: 00 05 11 00 00 26 48 FD 	
421	0.00000531	Vkt5Easy2.exe	IOCTL_SERIAL_GET_COMMSTATUS	Npdrv2	SUCCESS		
422	0.04505601	Vkt5Easy2.exe	IRP_MJ_READ	Npdrv2	TIMEOUT	Length 104: 00 05 05 07 DF 06 04 16 00 04 98 17 00 00 00 00 00 00 00 00 00 00 00 00 38 2C 00 00 00 00 00 05 38 2C 00 00 00 00 00 05 00 00 00 00 00 00 00 00 00 00 00 00 38 2C 00 00 00 00 00 05 38 2C 00 00 00 00 00 05 00 00 00 00 00 00 00 00 00 00 00 00 38 2C 00 00 00 00 00 05 38 2C 00 00 00 00 00 05 00 00 00 00 00 00 00 00 	
423	0.07278970	Vkt5Easy2.exe	IOCTL_SERIAL_WAIT_ON_MASK	Npdrv2	SUCCESS		
424	0.00000475	Vkt5Easy2.exe	IOCTL_SERIAL_GET_COMMSTATUS	Npdrv2	SUCCESS		
425	0.03541456	Vkt5Easy2.exe	IRP_MJ_READ	Npdrv2	TIMEOUT	Length 104: 00 00 00 00 38 2C 00 00 00 00 00 05 38 2C 00 00 00 00 00 05 00 00 00 3C 00 00 3C 00 04 FE 09 C4 38 2C 00 00 00 00 00 05 38 2C 00 00 00 00 00 05 00 00 00 00 00 00 3C 00 05 06 16 A8 38 2C 00 00 00 00 00 05 38 2C 00 00 00 00 00 05 00 00 00 00 00 00 00 00 00 00 00 00 38 2C 00 00 00 00 00 05 38 2C 00 00 00 00 00 05 	
426	0.03471307	Vkt5Easy2.exe	IOCTL_SERIAL_WAIT_ON_MASK	Npdrv2	SUCCESS		
427	0.00000503	Vkt5Easy2.exe	IOCTL_SERIAL_GET_COMMSTATUS	Npdrv2	SUCCESS		
428	0.04225593	Vkt5Easy2.exe	IRP_MJ_READ	Npdrv2	TIMEOUT	Length 58: 00 00 00 00 00 00 00 00 00 00 00 00 38 2C 00 00 00 00 00 05 38 2C 00 00 00 00 00 05 00 00 00 00 00 00 00 00 00 3F 00 00 00 00 00 00 00 00 00 00 00 00 00 00 00 00 00 00 F5 C7 	
429	0.13878105	Vkt5Easy2.exe	IOCTL_SERIAL_PURGE	Npdrv2	SUCCESS	Purge: TXCLEAR 	
430	0.79865765	Vkt5Easy2.exe	IOCTL_SERIAL_WAIT_ON_MASK	Npdrv2	SUCCESS		
431	0.00000419	Vkt5Easy2.exe	IOCTL_SERIAL_SET_DTR	Npdrv2	SUCCESS		
432	0.00000168	Vkt5Easy2.exe	IOCTL_SERIAL_SET_RTS	Npdrv2	SUCCESS		
433	0.00065511	Vkt5Easy2.exe	IRP_MJ_WRITE	Npdrv2	SUCCESS	Length 8: 00 05 11 00 00 27 89 3D 	
434	0.00000475	Vkt5Easy2.exe	IOCTL_SERIAL_GET_COMMSTATUS	Npdrv2	SUCCESS		
435	0.04372371	Vkt5Easy2.exe	IRP_MJ_READ	Npdrv2	TIMEOUT	Length 104: 00 05 05 07 DF 06 04 17 00 04 58 46 00 00 00 00 00 00 00 00 00 00 00 00 38 30 00 00 00 00 00 03 38 30 00 00 00 00 00 03 00 00 00 00 00 00 00 00 00 00 00 00 38 30 00 00 00 00 00 03 38 30 00 00 00 00 00 03 00 00 00 00 00 00 00 00 00 00 00 00 38 30 00 00 00 00 00 03 38 30 00 00 00 00 00 03 00 00 00 00 00 00 00 00 	
436	0.07406221	Vkt5Easy2.exe	IOCTL_SERIAL_WAIT_ON_MASK	Npdrv2	SUCCESS		
437	0.00000531	Vkt5Easy2.exe	IOCTL_SERIAL_GET_COMMSTATUS	Npdrv2	SUCCESS		
438	0.03408646	Vkt5Easy2.exe	IRP_MJ_READ	Npdrv2	TIMEOUT	Length 104: 00 00 00 00 38 30 00 00 00 00 00 03 38 30 00 00 00 00 00 03 00 00 00 3C 00 00 3C 00 04 FD 09 C4 38 30 00 00 00 00 00 03 38 30 00 00 00 00 00 03 00 00 00 00 00 00 3C 00 05 05 16 A8 38 30 00 00 00 00 00 03 38 30 00 00 00 00 00 03 00 00 00 00 00 00 00 00 00 00 00 00 38 30 00 00 00 00 00 03 38 30 00 00 00 00 00 03 	
439	0.03675914	Vkt5Easy2.exe	IOCTL_SERIAL_WAIT_ON_MASK	Npdrv2	SUCCESS		
440	0.00000447	Vkt5Easy2.exe	IOCTL_SERIAL_GET_COMMSTATUS	Npdrv2	SUCCESS		
441	0.04023640	Vkt5Easy2.exe	IRP_MJ_READ	Npdrv2	TIMEOUT	Length 58: 00 00 00 00 00 00 00 00 00 00 00 00 38 30 00 00 00 00 00 03 38 30 00 00 00 00 00 03 00 00 00 00 00 00 00 00 00 9F 00 00 00 00 00 00 00 00 00 00 00 00 00 00 00 00 00 00 73 44 	
442	0.13869472	Vkt5Easy2.exe	IOCTL_SERIAL_PURGE	Npdrv2	SUCCESS	Purge: TXCLEAR 	
443	0.80233605	Vkt5Easy2.exe	IOCTL_SERIAL_WAIT_ON_MASK	Npdrv2	SUCCESS		
444	0.00000391	Vkt5Easy2.exe	IOCTL_SERIAL_SET_DTR	Npdrv2	SUCCESS		
445	0.00000196	Vkt5Easy2.exe	IOCTL_SERIAL_SET_RTS	Npdrv2	SUCCESS		
446	0.00064869	Vkt5Easy2.exe	IRP_MJ_WRITE	Npdrv2	SUCCESS	Length 8: 00 05 11 00 00 28 C9 39 	
447	0.00000475	Vkt5Easy2.exe	IOCTL_SERIAL_GET_COMMSTATUS	Npdrv2	SUCCESS		
448	0.04126865	Vkt5Easy2.exe	IRP_MJ_READ	Npdrv2	TIMEOUT	Length 104: 00 05 05 07 DF 06 05 00 00 00 63 F6 00 00 00 00 00 00 00 00 00 00 00 00 38 32 00 00 00 00 00 04 38 32 00 00 00 00 00 04 00 00 00 00 00 00 00 00 00 00 00 00 38 32 00 00 00 00 00 04 38 32 00 00 00 00 00 04 00 00 00 00 00 00 00 00 00 00 00 00 38 32 00 00 00 00 00 04 38 32 00 00 00 00 00 04 00 00 00 00 00 00 00 00 	
449	0.07610492	Vkt5Easy2.exe	IOCTL_SERIAL_WAIT_ON_MASK	Npdrv2	SUCCESS		
450	0.00000447	Vkt5Easy2.exe	IOCTL_SERIAL_GET_COMMSTATUS	Npdrv2	SUCCESS		
451	0.03163363	Vkt5Easy2.exe	IRP_MJ_READ	Npdrv2	TIMEOUT	Length 104: 00 00 00 00 38 32 00 00 00 00 00 04 38 32 00 00 00 00 00 04 00 00 00 3B 00 00 3B 00 04 FE 09 C4 38 32 00 00 00 00 00 04 38 32 00 00 00 00 00 04 00 00 00 00 00 00 3B 00 05 05 16 A8 38 32 00 00 00 00 00 04 38 32 00 00 00 00 00 04 00 00 00 00 00 00 00 00 00 00 00 00 38 32 00 00 00 00 00 04 38 32 00 00 00 00 00 04 	
452	0.03839259	Vkt5Easy2.exe	IOCTL_SERIAL_WAIT_ON_MASK	Npdrv2	SUCCESS		
453	0.00000447	Vkt5Easy2.exe	IOCTL_SERIAL_GET_COMMSTATUS	Npdrv2	SUCCESS		
454	0.03847807	Vkt5Easy2.exe	IRP_MJ_READ	Npdrv2	TIMEOUT	Length 58: 00 00 00 00 00 00 00 00 00 00 00 00 38 32 00 00 00 00 00 04 38 32 00 00 00 00 00 04 00 00 00 00 00 00 00 00 00 49 00 00 00 00 00 00 00 00 00 00 00 00 00 00 00 00 00 00 50 9E 	
455	0.13869696	Vkt5Easy2.exe	IOCTL_SERIAL_PURGE	Npdrv2	SUCCESS	Purge: TXCLEAR 	
456	0.80123843	Vkt5Easy2.exe	IOCTL_SERIAL_WAIT_ON_MASK	Npdrv2	SUCCESS		
457	0.00000335	Vkt5Easy2.exe	IOCTL_SERIAL_SET_DTR	Npdrv2	SUCCESS		
458	0.00000168	Vkt5Easy2.exe	IOCTL_SERIAL_SET_RTS	Npdrv2	SUCCESS		
459	0.00070679	Vkt5Easy2.exe	IRP_MJ_WRITE	Npdrv2	SUCCESS	Length 8: 00 05 11 00 00 29 08 F9 	
460	0.00000475	Vkt5Easy2.exe	IOCTL_SERIAL_GET_COMMSTATUS	Npdrv2	SUCCESS		
461	0.04119155	Vkt5Easy2.exe	IRP_MJ_READ	Npdrv2	TIMEOUT	Length 104: 00 05 05 07 DF 06 05 01 00 00 A3 A7 00 00 00 00 00 00 00 00 00 00 00 00 38 34 00 00 00 00 00 05 38 34 00 00 00 00 00 05 00 00 00 00 00 00 00 00 00 00 00 00 38 34 00 00 00 00 00 05 38 34 00 00 00 00 00 05 00 00 00 00 00 00 00 00 00 00 00 00 38 34 00 00 00 00 00 05 38 34 00 00 00 00 00 05 00 00 00 00 00 00 00 00 	
462	0.07696397	Vkt5Easy2.exe	IOCTL_SERIAL_WAIT_ON_MASK	Npdrv2	SUCCESS		
463	0.00000587	Vkt5Easy2.exe	IOCTL_SERIAL_GET_COMMSTATUS	Npdrv2	SUCCESS		
464	0.04736943	Vkt5Easy2.exe	IRP_MJ_READ	Npdrv2	TIMEOUT	Length 104: 00 00 00 00 38 34 00 00 00 00 00 05 38 34 00 00 00 00 00 05 00 00 00 3C 00 00 3C 00 04 FE 09 C4 38 34 00 00 00 00 00 05 38 34 00 00 00 00 00 05 00 00 00 00 00 00 3C 00 05 06 16 A8 38 34 00 00 00 00 00 05 38 34 00 00 00 00 00 05 00 00 00 00 00 00 00 00 00 00 00 00 38 34 00 00 00 00 00 05 38 34 00 00 00 00 00 05 	
465	0.02217768	Vkt5Easy2.exe	IOCTL_SERIAL_WAIT_ON_MASK	Npdrv2	SUCCESS		
466	0.00000503	Vkt5Easy2.exe	IOCTL_SERIAL_GET_COMMSTATUS	Npdrv2	SUCCESS		
467	0.03808640	Vkt5Easy2.exe	IRP_MJ_READ	Npdrv2	TIMEOUT	Length 58: 00 00 00 00 00 00 00 00 00 00 00 00 38 34 00 00 00 00 00 05 38 34 00 00 00 00 00 05 00 00 00 00 00 00 00 00 00 5D 00 00 00 00 00 00 00 00 00 00 00 00 00 00 00 00 00 00 4A 61 	
468	0.13953394	Vkt5Easy2.exe	IOCTL_SERIAL_PURGE	Npdrv2	SUCCESS	Purge: TXCLEAR 	
469	0.80330824	Vkt5Easy2.exe	IOCTL_SERIAL_WAIT_ON_MASK	Npdrv2	SUCCESS		
470	0.00000447	Vkt5Easy2.exe	IOCTL_SERIAL_SET_DTR	Npdrv2	SUCCESS		
471	0.00000168	Vkt5Easy2.exe	IOCTL_SERIAL_SET_RTS	Npdrv2	SUCCESS		
472	0.00065176	Vkt5Easy2.exe	IRP_MJ_WRITE	Npdrv2	SUCCESS	Length 8: 00 05 11 00 00 2A 48 F8 	
473	0.00000475	Vkt5Easy2.exe	IOCTL_SERIAL_GET_COMMSTATUS	Npdrv2	SUCCESS		
474	0.03916168	Vkt5Easy2.exe	IRP_MJ_READ	Npdrv2	TIMEOUT	Length 104: 00 05 05 07 DF 06 05 02 00 01 63 96 00 00 00 00 00 00 00 00 00 00 00 00 38 36 00 00 00 00 00 06 38 36 00 00 00 00 00 06 00 00 00 00 00 00 00 00 00 00 00 00 38 36 00 00 00 00 00 06 38 36 00 00 00 00 00 06 00 00 00 00 00 00 00 00 00 00 00 00 38 36 00 00 00 00 00 06 38 36 00 00 00 00 00 06 00 00 00 00 00 00 00 00 	
475	0.07870386	Vkt5Easy2.exe	IOCTL_SERIAL_WAIT_ON_MASK	Npdrv2	SUCCESS		
476	0.00000503	Vkt5Easy2.exe	IOCTL_SERIAL_GET_COMMSTATUS	Npdrv2	SUCCESS		
477	0.04510825	Vkt5Easy2.exe	IRP_MJ_READ	Npdrv2	TIMEOUT	Length 104: 00 00 00 00 38 36 00 00 00 00 00 06 38 36 00 00 00 00 00 06 00 00 00 3C 00 00 3C 00 05 01 09 C4 38 36 00 00 00 00 00 06 38 36 00 00 00 00 00 06 00 00 00 00 00 00 3C 00 05 08 16 A8 38 36 00 00 00 00 00 06 38 36 00 00 00 00 00 06 00 00 00 00 00 00 00 00 00 00 00 00 38 36 00 00 00 00 00 06 38 36 00 00 00 00 00 06 	
478	0.02495038	Vkt5Easy2.exe	IOCTL_SERIAL_WAIT_ON_MASK	Npdrv2	SUCCESS		
479	0.00000475	Vkt5Easy2.exe	IOCTL_SERIAL_GET_COMMSTATUS	Npdrv2	SUCCESS		
480	0.03634792	Vkt5Easy2.exe	IRP_MJ_READ	Npdrv2	TIMEOUT	Length 58: 00 00 00 00 00 00 00 00 00 00 00 00 38 36 00 00 00 00 00 06 38 36 00 00 00 00 00 06 00 00 00 00 00 00 00 00 00 C4 00 00 00 00 00 00 00 00 00 00 00 00 00 00 00 00 00 00 4A 45 	
481	0.13971748	Vkt5Easy2.exe	IOCTL_SERIAL_PURGE	Npdrv2	SUCCESS	Purge: TXCLEAR 	
482	0.80450085	Vkt5Easy2.exe	IOCTL_SERIAL_WAIT_ON_MASK	Npdrv2	SUCCESS		
483	0.00000391	Vkt5Easy2.exe	IOCTL_SERIAL_SET_DTR	Npdrv2	SUCCESS		
484	0.00000112	Vkt5Easy2.exe	IOCTL_SERIAL_SET_RTS	Npdrv2	SUCCESS		
485	0.00065483	Vkt5Easy2.exe	IRP_MJ_WRITE	Npdrv2	SUCCESS	Length 8: 00 05 11 00 00 2B 89 38 	
486	0.00000447	Vkt5Easy2.exe	IOCTL_SERIAL_GET_COMMSTATUS	Npdrv2	SUCCESS		
487	0.03795315	Vkt5Easy2.exe	IRP_MJ_READ	Npdrv2	TIMEOUT	Length 104: 00 05 05 07 DF 06 05 03 00 01 A3 C7 00 00 00 00 00 00 00 00 00 00 00 00 38 38 00 00 00 00 00 07 38 38 00 00 00 00 00 07 00 00 00 00 00 00 00 00 00 00 00 00 38 38 00 00 00 00 00 07 38 38 00 00 00 00 00 07 00 00 00 00 00 00 00 00 00 00 00 00 38 38 00 00 00 00 00 07 38 38 00 00 00 00 00 07 00 00 00 00 00 00 00 00 	
488	0.07990178	Vkt5Easy2.exe	IOCTL_SERIAL_WAIT_ON_MASK	Npdrv2	SUCCESS		
489	0.00000475	Vkt5Easy2.exe	IOCTL_SERIAL_GET_COMMSTATUS	Npdrv2	SUCCESS		
490	0.04389943	Vkt5Easy2.exe	IRP_MJ_READ	Npdrv2	TIMEOUT	Length 104: 00 00 00 00 38 38 00 00 00 00 00 07 38 38 00 00 00 00 00 07 00 00 00 3C 00 00 3C 00 05 04 09 C4 38 38 00 00 00 00 00 07 38 38 00 00 00 00 00 07 00 00 00 00 00 00 3C 00 05 0B 16 A8 38 38 00 00 00 00 00 07 38 38 00 00 00 00 00 07 00 00 00 00 00 00 00 00 00 00 00 00 38 38 00 00 00 00 00 07 38 38 00 00 00 00 00 07 	
491	0.02643157	Vkt5Easy2.exe	IOCTL_SERIAL_WAIT_ON_MASK	Npdrv2	SUCCESS		
492	0.00000531	Vkt5Easy2.exe	IOCTL_SERIAL_GET_COMMSTATUS	Npdrv2	SUCCESS		
493	0.03494522	Vkt5Easy2.exe	IRP_MJ_READ	Npdrv2	TIMEOUT	Length 58: 00 00 00 00 00 00 00 00 00 00 00 00 38 38 00 00 00 00 00 07 38 38 00 00 00 00 00 07 00 00 00 00 00 00 00 00 00 18 00 00 00 00 00 00 00 00 00 00 00 00 00 00 00 00 00 00 83 24 	
494	0.13953561	Vkt5Easy2.exe	IOCTL_SERIAL_PURGE	Npdrv2	SUCCESS	Purge: TXCLEAR 	
495	0.80616028	Vkt5Easy2.exe	IOCTL_SERIAL_WAIT_ON_MASK	Npdrv2	SUCCESS		
496	0.00000363	Vkt5Easy2.exe	IOCTL_SERIAL_SET_DTR	Npdrv2	SUCCESS		
497	0.00000168	Vkt5Easy2.exe	IOCTL_SERIAL_SET_RTS	Npdrv2	SUCCESS		
498	0.00064952	Vkt5Easy2.exe	IRP_MJ_WRITE	Npdrv2	SUCCESS	Length 8: 00 05 11 00 00 2C C8 FA 	
499	0.00000447	Vkt5Easy2.exe	IOCTL_SERIAL_GET_COMMSTATUS	Npdrv2	SUCCESS		
500	0.03631104	Vkt5Easy2.exe	IRP_MJ_READ	Npdrv2	TIMEOUT	Length 104: 00 05 05 07 DF 06 05 04 00 02 63 36 00 00 00 00 00 00 00 00 00 00 00 00 38 3A 00 00 00 00 00 08 38 3A 00 00 00 00 00 08 00 00 00 00 00 00 00 00 00 00 00 00 38 3A 00 00 00 00 00 08 38 3A 00 00 00 00 00 08 00 00 00 00 00 00 00 00 00 00 00 00 38 3A 00 00 00 00 00 08 38 3A 00 00 00 00 00 08 00 00 00 00 00 00 00 00 	
501	0.08151483	Vkt5Easy2.exe	IOCTL_SERIAL_WAIT_ON_MASK	Npdrv2	SUCCESS		
502	0.00000503	Vkt5Easy2.exe	IOCTL_SERIAL_GET_COMMSTATUS	Npdrv2	SUCCESS		
503	0.04227241	Vkt5Easy2.exe	IRP_MJ_READ	Npdrv2	TIMEOUT	Length 104: 00 00 00 00 38 3A 00 00 00 00 00 08 38 3A 00 00 00 00 00 08 00 00 00 3C 00 00 3C 00 05 00 09 C4 38 3A 00 00 00 00 00 08 38 3A 00 00 00 00 00 08 00 00 00 00 00 00 3C 00 05 09 16 A8 38 3A 00 00 00 00 00 08 38 3A 00 00 00 00 00 08 00 00 00 00 00 00 00 00 00 00 00 00 38 3A 00 00 00 00 00 08 38 3A 00 00 00 00 00 08 	
504	0.02837539	Vkt5Easy2.exe	IOCTL_SERIAL_WAIT_ON_MASK	Npdrv2	SUCCESS		
505	0.00000419	Vkt5Easy2.exe	IOCTL_SERIAL_GET_COMMSTATUS	Npdrv2	SUCCESS		
506	0.03298212	Vkt5Easy2.exe	IRP_MJ_READ	Npdrv2	TIMEOUT	Length 58: 00 00 00 00 00 00 00 00 00 00 00 00 38 3A 00 00 00 00 00 08 38 3A 00 00 00 00 00 08 00 00 00 00 00 00 00 00 00 1D 00 00 00 00 00 00 00 00 00 00 00 00 00 00 00 00 00 00 8D D3 	
507	0.13908723	Vkt5Easy2.exe	IOCTL_SERIAL_PURGE	Npdrv2	SUCCESS	Purge: TXCLEAR 	
508	0.80958865	Vkt5Easy2.exe	IOCTL_SERIAL_WAIT_ON_MASK	Npdrv2	SUCCESS		
509	0.00000335	Vkt5Easy2.exe	IOCTL_SERIAL_SET_DTR	Npdrv2	SUCCESS		
510	0.00000196	Vkt5Easy2.exe	IOCTL_SERIAL_SET_RTS	Npdrv2	SUCCESS		
511	0.00065036	Vkt5Easy2.exe	IRP_MJ_WRITE	Npdrv2	SUCCESS	Length 8: 00 05 11 00 00 2D 09 3A 	
512	0.00000531	Vkt5Easy2.exe	IOCTL_SERIAL_GET_COMMSTATUS	Npdrv2	SUCCESS		
513	0.03278964	Vkt5Easy2.exe	IRP_MJ_READ	Npdrv2	TIMEOUT	Length 104: 00 05 05 07 DF 06 05 05 00 02 A3 67 00 00 00 00 00 00 00 00 00 00 00 00 38 3C 00 00 00 00 00 09 38 3C 00 00 00 00 00 09 00 00 00 00 00 00 00 00 00 00 00 00 38 3C 00 00 00 00 00 09 38 3C 00 00 00 00 00 09 00 00 00 00 00 00 00 00 00 00 00 00 38 3C 00 00 00 00 00 09 38 3C 00 00 00 00 00 09 00 00 00 00 00 00 00 00 	
514	0.08535386	Vkt5Easy2.exe	IOCTL_SERIAL_WAIT_ON_MASK	Npdrv2	SUCCESS		
515	0.00000503	Vkt5Easy2.exe	IOCTL_SERIAL_GET_COMMSTATUS	Npdrv2	SUCCESS		
516	0.03867698	Vkt5Easy2.exe	IRP_MJ_READ	Npdrv2	TIMEOUT	Length 104: 00 00 00 00 38 3C 00 00 00 00 00 09 38 3C 00 00 00 00 00 09 00 00 00 3C 00 00 3C 00 04 FF 09 C4 38 3C 00 00 00 00 00 09 38 3C 00 00 00 00 00 09 00 00 00 00 00 00 3C 00 05 08 16 A8 38 3C 00 00 00 00 00 09 38 3C 00 00 00 00 00 09 00 00 00 00 00 00 00 00 00 00 00 00 38 3C 00 00 00 00 00 09 38 3C 00 00 00 00 00 09 	
517	0.03086286	Vkt5Easy2.exe	IOCTL_SERIAL_WAIT_ON_MASK	Npdrv2	SUCCESS		
518	0.00000475	Vkt5Easy2.exe	IOCTL_SERIAL_GET_COMMSTATUS	Npdrv2	SUCCESS		
519	0.04531107	Vkt5Easy2.exe	IRP_MJ_READ	Npdrv2	TIMEOUT	Length 58: 00 00 00 00 00 00 00 00 00 00 00 00 38 3C 00 00 00 00 00 09 38 3C 00 00 00 00 00 09 00 00 00 00 00 00 00 00 00 0D 00 00 00 00 00 00 00 00 00 00 00 00 00 00 00 00 00 00 B5 2A 	
520	0.13880256	Vkt5Easy2.exe	IOCTL_SERIAL_PURGE	Npdrv2	SUCCESS	Purge: TXCLEAR 	
521	0.79506781	Vkt5Easy2.exe	IOCTL_SERIAL_WAIT_ON_MASK	Npdrv2	SUCCESS		
522	0.00000335	Vkt5Easy2.exe	IOCTL_SERIAL_SET_DTR	Npdrv2	SUCCESS		
523	0.00000168	Vkt5Easy2.exe	IOCTL_SERIAL_SET_RTS	Npdrv2	SUCCESS		
524	0.00065595	Vkt5Easy2.exe	IRP_MJ_WRITE	Npdrv2	SUCCESS	Length 8: 00 05 11 00 00 2E 49 3B 	
525	0.00004917	Vkt5Easy2.exe	IOCTL_SERIAL_GET_COMMSTATUS	Npdrv2	SUCCESS		
526	0.03171967	Vkt5Easy2.exe	IRP_MJ_READ	Npdrv2	TIMEOUT	Length 104: 00 05 05 07 DF 06 05 06 00 03 63 56 00 00 00 00 00 00 00 00 00 00 00 00 38 3E 00 00 00 00 00 0A 38 3E 00 00 00 00 00 0A 00 00 00 00 00 00 00 00 00 00 00 00 38 3E 00 00 00 00 00 0A 38 3E 00 00 00 00 00 0A 00 00 00 00 00 00 00 00 00 00 00 00 38 3E 00 00 00 00 00 0A 38 3E 00 00 00 00 00 0A 00 00 00 00 00 00 00 00 	
527	0.08602881	Vkt5Easy2.exe	IOCTL_SERIAL_WAIT_ON_MASK	Npdrv2	SUCCESS		
528	0.00000475	Vkt5Easy2.exe	IOCTL_SERIAL_GET_COMMSTATUS	Npdrv2	SUCCESS		
529	0.03781598	Vkt5Easy2.exe	IRP_MJ_READ	Npdrv2	TIMEOUT	Length 104: 00 00 00 00 38 3E 00 00 00 00 00 0A 38 3E 00 00 00 00 00 0A 00 00 00 3C 00 00 3C 00 04 FF 09 C4 38 3E 00 00 00 00 00 0A 38 3E 00 00 00 00 00 0A 00 00 00 00 00 00 3C 00 05 07 16 A8 38 3E 00 00 00 00 00 0A 38 3E 00 00 00 00 00 0A 00 00 00 00 00 00 00 00 00 00 00 00 38 3E 00 00 00 00 00 0A 38 3E 00 00 00 00 00 0A 	
530	0.03239462	Vkt5Easy2.exe	IOCTL_SERIAL_WAIT_ON_MASK	Npdrv2	SUCCESS		
531	0.00000475	Vkt5Easy2.exe	IOCTL_SERIAL_GET_COMMSTATUS	Npdrv2	SUCCESS		
532	0.04455399	Vkt5Easy2.exe	IRP_MJ_READ	Npdrv2	TIMEOUT	Length 58: 00 00 00 00 00 00 00 00 00 00 00 00 38 3E 00 00 00 00 00 0A 38 3E 00 00 00 00 00 0A 00 00 00 00 00 00 00 00 00 92 00 00 00 00 00 00 00 00 00 00 00 00 00 00 00 00 00 00 45 6E 	
533	0.13863522	Vkt5Easy2.exe	IOCTL_SERIAL_PURGE	Npdrv2	SUCCESS	Purge: TXCLEAR 	
534	0.79545696	Vkt5Easy2.exe	IOCTL_SERIAL_WAIT_ON_MASK	Npdrv2	SUCCESS		
535	0.00000307	Vkt5Easy2.exe	IOCTL_SERIAL_SET_DTR	Npdrv2	SUCCESS		
536	0.00000196	Vkt5Easy2.exe	IOCTL_SERIAL_SET_RTS	Npdrv2	SUCCESS		
537	0.00065232	Vkt5Easy2.exe	IRP_MJ_WRITE	Npdrv2	SUCCESS	Length 8: 00 05 11 00 00 2F 88 FB 	
538	0.00000503	Vkt5Easy2.exe	IOCTL_SERIAL_GET_COMMSTATUS	Npdrv2	SUCCESS		
539	0.03140232	Vkt5Easy2.exe	IRP_MJ_READ	Npdrv2	TIMEOUT	Length 104: 00 05 05 07 DF 06 05 07 00 03 A3 07 00 00 00 00 00 00 00 00 00 00 00 00 38 40 00 00 00 00 00 06 38 40 00 00 00 00 00 06 00 00 00 00 00 00 00 00 00 00 00 00 38 40 00 00 00 00 00 06 38 40 00 00 00 00 00 06 00 00 00 00 00 00 00 00 00 00 00 00 38 40 00 00 00 00 00 06 38 40 00 00 00 00 00 06 00 00 00 00 00 00 00 00 	
540	0.08661129	Vkt5Easy2.exe	IOCTL_SERIAL_WAIT_ON_MASK	Npdrv2	SUCCESS		
541	0.00000475	Vkt5Easy2.exe	IOCTL_SERIAL_GET_COMMSTATUS	Npdrv2	SUCCESS		
542	0.03665885	Vkt5Easy2.exe	IRP_MJ_READ	Npdrv2	TIMEOUT	Length 104: 00 00 00 00 38 40 00 00 00 00 00 06 38 40 00 00 00 00 00 06 00 00 00 3C 00 00 3C 00 05 01 09 C4 38 40 00 00 00 00 00 06 38 40 00 00 00 00 00 06 00 00 00 00 00 00 3C 00 05 0A 16 A8 38 40 00 00 00 00 00 06 38 40 00 00 00 00 00 06 00 00 00 00 00 00 00 00 00 00 00 00 38 40 00 00 00 00 00 06 38 40 00 00 00 00 00 06 	
543	0.03345956	Vkt5Easy2.exe	IOCTL_SERIAL_WAIT_ON_MASK	Npdrv2	SUCCESS		
544	0.00000503	Vkt5Easy2.exe	IOCTL_SERIAL_GET_COMMSTATUS	Npdrv2	SUCCESS		
545	0.04350022	Vkt5Easy2.exe	IRP_MJ_READ	Npdrv2	TIMEOUT	Length 58: 00 00 00 00 00 00 00 00 00 00 00 00 38 40 00 00 00 00 00 06 38 40 00 00 00 00 00 06 00 00 00 00 00 00 00 00 00 1A 00 00 00 00 00 00 00 00 00 00 00 00 00 00 00 00 00 00 26 59 	
546	0.13883860	Vkt5Easy2.exe	IOCTL_SERIAL_PURGE	Npdrv2	SUCCESS	Purge: TXCLEAR 	
547	0.79819195	Vkt5Easy2.exe	IOCTL_SERIAL_WAIT_ON_MASK	Npdrv2	SUCCESS		
548	0.00000419	Vkt5Easy2.exe	IOCTL_SERIAL_SET_DTR	Npdrv2	SUCCESS		
549	0.00000168	Vkt5Easy2.exe	IOCTL_SERIAL_SET_RTS	Npdrv2	SUCCESS		
550	0.00065371	Vkt5Easy2.exe	IRP_MJ_WRITE	Npdrv2	SUCCESS	Length 8: 00 05 11 00 00 30 C9 33 	
551	0.00000475	Vkt5Easy2.exe	IOCTL_SERIAL_GET_COMMSTATUS	Npdrv2	SUCCESS		
552	0.04424138	Vkt5Easy2.exe	IRP_MJ_READ	Npdrv2	TIMEOUT	Length 104: 00 05 05 07 DF 06 05 08 00 04 62 76 00 00 00 00 00 00 00 00 00 00 00 00 38 41 00 00 00 00 00 07 38 41 00 00 00 00 00 07 00 00 00 00 00 00 00 00 00 00 00 00 38 41 00 00 00 00 00 07 38 41 00 00 00 00 00 07 00 00 00 00 00 00 00 00 00 00 00 00 38 41 00 00 00 00 00 07 38 41 00 00 00 00 00 07 00 00 00 00 00 00 00 00 	
553	0.07360042	Vkt5Easy2.exe	IOCTL_SERIAL_WAIT_ON_MASK	Npdrv2	SUCCESS		
554	0.00000475	Vkt5Easy2.exe	IOCTL_SERIAL_GET_COMMSTATUS	Npdrv2	SUCCESS		
555	0.03459211	Vkt5Easy2.exe	IRP_MJ_READ	Npdrv2	TIMEOUT	Length 104: 00 00 00 00 38 41 00 00 00 00 00 07 38 41 00 00 00 00 00 07 00 00 00 3C 00 00 3C 00 05 03 09 C4 38 41 00 00 00 00 00 07 38 41 00 00 00 00 00 07 00 00 00 00 00 00 3C 00 05 0B 16 A8 38 41 00 00 00 00 00 07 38 41 00 00 00 00 00 07 00 00 00 00 00 00 00 00 00 00 00 00 38 41 00 00 00 00 00 07 38 41 00 00 00 00 00 07 	
556	0.03557687	Vkt5Easy2.exe	IOCTL_SERIAL_WAIT_ON_MASK	Npdrv2	SUCCESS		
557	0.00000447	Vkt5Easy2.exe	IOCTL_SERIAL_GET_COMMSTATUS	Npdrv2	SUCCESS		
558	0.04140414	Vkt5Easy2.exe	IRP_MJ_READ	Npdrv2	TIMEOUT	Length 58: 00 00 00 00 00 00 00 00 00 00 00 00 38 41 00 00 00 00 00 07 38 41 00 00 00 00 00 07 00 00 00 00 00 00 00 00 00 66 00 00 00 00 00 00 00 00 00 00 00 00 00 00 00 00 00 00 A5 E7 	
559	0.13877015	Vkt5Easy2.exe	IOCTL_SERIAL_PURGE	Npdrv2	SUCCESS	Purge: TXCLEAR 	
560	0.79923230	Vkt5Easy2.exe	IOCTL_SERIAL_WAIT_ON_MASK	Npdrv2	SUCCESS		
561	0.00000363	Vkt5Easy2.exe	IOCTL_SERIAL_SET_DTR	Npdrv2	SUCCESS		
562	0.00000168	Vkt5Easy2.exe	IOCTL_SERIAL_SET_RTS	Npdrv2	SUCCESS		
563	0.00064924	Vkt5Easy2.exe	IRP_MJ_WRITE	Npdrv2	SUCCESS	Length 8: 00 05 11 00 00 31 08 F3 	
564	0.00000531	Vkt5Easy2.exe	IOCTL_SERIAL_GET_COMMSTATUS	Npdrv2	SUCCESS		
565	0.04323175	Vkt5Easy2.exe	IRP_MJ_READ	Npdrv2	TIMEOUT	Length 104: 00 05 05 07 DF 06 05 09 00 04 A2 27 00 00 00 00 00 00 00 00 00 00 00 00 38 42 00 00 00 00 00 08 38 42 00 00 00 00 00 08 00 00 00 00 00 00 00 00 00 00 00 00 38 42 00 00 00 00 00 08 38 42 00 00 00 00 00 08 00 00 00 00 00 00 00 00 00 00 00 00 38 42 00 00 00 00 00 08 38 42 00 00 00 00 00 08 00 00 00 00 00 00 00 00 	
566	0.07459104	Vkt5Easy2.exe	IOCTL_SERIAL_WAIT_ON_MASK	Npdrv2	SUCCESS		
567	0.00000531	Vkt5Easy2.exe	IOCTL_SERIAL_GET_COMMSTATUS	Npdrv2	SUCCESS		
568	0.03360371	Vkt5Easy2.exe	IRP_MJ_READ	Npdrv2	TIMEOUT	Length 104: 00 00 00 00 38 42 00 00 00 00 00 08 38 42 00 00 00 00 00 08 00 00 00 3C 00 00 3C 00 05 05 09 C4 38 42 00 00 00 00 00 08 38 42 00 00 00 00 00 08 00 00 00 00 00 00 3C 00 05 0E 16 A8 38 42 00 00 00 00 00 08 38 42 00 00 00 00 00 08 00 00 00 00 00 00 00 00 00 00 00 00 38 42 00 00 00 00 00 08 38 42 00 00 00 00 00 08 	
569	0.03651079	Vkt5Easy2.exe	IOCTL_SERIAL_WAIT_ON_MASK	Npdrv2	SUCCESS		
570	0.00000475	Vkt5Easy2.exe	IOCTL_SERIAL_GET_COMMSTATUS	Npdrv2	SUCCESS		
571	0.04045374	Vkt5Easy2.exe	IRP_MJ_READ	Npdrv2	TIMEOUT	Length 58: 00 00 00 00 00 00 00 00 00 00 00 00 38 42 00 00 00 00 00 08 38 42 00 00 00 00 00 08 00 00 00 00 00 00 00 00 00 B9 00 00 00 00 00 00 00 00 00 00 00 00 00 00 00 00 00 00 D9 12 	
572	0.13768621	Vkt5Easy2.exe	IOCTL_SERIAL_PURGE	Npdrv2	SUCCESS	Purge: TXCLEAR 	
573	0.80281404	Vkt5Easy2.exe	IOCTL_SERIAL_WAIT_ON_MASK	Npdrv2	SUCCESS		
574	0.00000363	Vkt5Easy2.exe	IOCTL_SERIAL_SET_DTR	Npdrv2	SUCCESS		
575	0.00000223	Vkt5Easy2.exe	IOCTL_SERIAL_SET_RTS	Npdrv2	SUCCESS		
576	0.00065176	Vkt5Easy2.exe	IRP_MJ_WRITE	Npdrv2	SUCCESS	Length 8: 00 05 11 00 00 32 48 F2 	
577	0.00000475	Vkt5Easy2.exe	IOCTL_SERIAL_GET_COMMSTATUS	Npdrv2	SUCCESS		
578	0.04066830	Vkt5Easy2.exe	IRP_MJ_READ	Npdrv2	TIMEOUT	Length 104: 00 05 05 07 DF 06 05 0A 00 05 62 16 00 00 00 00 00 00 00 00 00 00 00 00 38 43 00 00 00 00 00 09 38 43 00 00 00 00 00 09 00 00 00 00 00 00 00 00 00 00 00 00 38 43 00 00 00 00 00 09 38 43 00 00 00 00 00 09 00 00 00 00 00 00 00 00 00 00 00 00 38 43 00 00 00 00 00 09 38 43 00 00 00 00 00 09 00 00 00 00 00 00 00 00 	
579	0.07710561	Vkt5Easy2.exe	IOCTL_SERIAL_WAIT_ON_MASK	Npdrv2	SUCCESS		
580	0.00000615	Vkt5Easy2.exe	IOCTL_SERIAL_GET_COMMSTATUS	Npdrv2	SUCCESS		
581	0.04567843	Vkt5Easy2.exe	IRP_MJ_READ	Npdrv2	TIMEOUT	Length 104: 00 00 00 00 38 43 00 00 00 00 00 09 38 43 00 00 00 00 00 09 00 00 00 3C 00 00 3C 00 04 FE 09 C4 38 43 00 00 00 00 00 09 38 43 00 00 00 00 00 09 00 00 00 00 00 00 3C 00 05 0B 16 A8 38 43 00 00 00 00 00 09 38 43 00 00 00 00 00 09 00 00 00 00 00 00 00 00 00 00 00 00 38 43 00 00 00 00 00 09 38 43 00 00 00 00 00 09 	
582	0.02363429	Vkt5Easy2.exe	IOCTL_SERIAL_WAIT_ON_MASK	Npdrv2	SUCCESS		
583	0.00000503	Vkt5Easy2.exe	IOCTL_SERIAL_GET_COMMSTATUS	Npdrv2	SUCCESS		
584	0.03770312	Vkt5Easy2.exe	IRP_MJ_READ	Npdrv2	TIMEOUT	Length 58: 00 00 00 00 00 00 00 00 00 00 00 00 38 43 00 00 00 00 00 09 38 43 00 00 00 00 00 09 00 00 00 00 00 00 00 00 00 EF 00 00 00 00 00 00 00 00 00 00 00 00 00 00 00 00 00 00 BE E0 	
585	0.13945879	Vkt5Easy2.exe	IOCTL_SERIAL_PURGE	Npdrv2	SUCCESS	Purge: TXCLEAR 	
586	0.80314733	Vkt5Easy2.exe	IOCTL_SERIAL_WAIT_ON_MASK	Npdrv2	SUCCESS		
587	0.00000335	Vkt5Easy2.exe	IOCTL_SERIAL_SET_DTR	Npdrv2	SUCCESS		
588	0.00000168	Vkt5Easy2.exe	IOCTL_SERIAL_SET_RTS	Npdrv2	SUCCESS		
589	0.00065092	Vkt5Easy2.exe	IRP_MJ_WRITE	Npdrv2	SUCCESS	Length 8: 00 05 11 00 00 33 89 32 	
590	0.00000531	Vkt5Easy2.exe	IOCTL_SERIAL_GET_COMMSTATUS	Npdrv2	SUCCESS		
591	0.03933265	Vkt5Easy2.exe	IRP_MJ_READ	Npdrv2	TIMEOUT	Length 104: 00 05 05 07 DF 06 05 0B 00 00 A1 87 00 00 00 00 00 00 00 00 00 00 00 00 38 44 00 00 00 00 00 0A 38 44 00 00 00 00 00 0A 00 00 00 00 00 00 00 00 00 00 00 00 38 44 00 00 00 00 00 0A 38 44 00 00 00 00 00 0A 00 00 00 00 00 00 00 00 00 00 00 00 38 44 00 00 00 00 00 0A 38 44 00 00 00 00 00 0A 00 00 00 00 00 00 00 00 	
592	0.07840773	Vkt5Easy2.exe	IOCTL_SERIAL_WAIT_ON_MASK	Npdrv2	SUCCESS		
593	0.00000475	Vkt5Easy2.exe	IOCTL_SERIAL_GET_COMMSTATUS	Npdrv2	SUCCESS		
594	0.04539907	Vkt5Easy2.exe	IRP_MJ_READ	Npdrv2	TIMEOUT	Length 104: 00 00 00 00 38 44 00 00 00 00 00 0A 38 44 00 00 00 00 00 0A 00 00 00 3B 00 00 3B 00 04 E8 09 C4 38 44 00 00 00 00 00 0A 38 44 00 00 00 00 00 0A 00 00 00 00 00 00 3B 00 05 1F 16 A8 38 44 00 00 00 00 00 0A 38 44 00 00 00 00 00 0A 00 00 00 00 00 00 00 00 00 00 00 00 38 44 00 00 00 00 00 0A 38 44 00 00 00 00 00 0A 	
595	0.02486685	Vkt5Easy2.exe	IOCTL_SERIAL_WAIT_ON_MASK	Npdrv2	SUCCESS		
596	0.00000475	Vkt5Easy2.exe	IOCTL_SERIAL_GET_COMMSTATUS	Npdrv2	SUCCESS		
597	0.03643256	Vkt5Easy2.exe	IRP_MJ_READ	Npdrv2	TIMEOUT	Length 58: 00 00 00 00 00 00 00 00 00 00 00 00 38 44 00 00 00 00 00 0A 38 44 00 00 00 00 00 0A 00 00 00 00 00 00 00 00 00 36 00 00 00 00 00 00 00 00 00 00 00 00 00 00 00 00 00 00 C2 31 	
598	0.13953002	Vkt5Easy2.exe	IOCTL_SERIAL_PURGE	Npdrv2	SUCCESS	Purge: TXCLEAR 	
599	0.80437709	Vkt5Easy2.exe	IOCTL_SERIAL_WAIT_ON_MASK	Npdrv2	SUCCESS		
600	0.00000335	Vkt5Easy2.exe	IOCTL_SERIAL_SET_DTR	Npdrv2	SUCCESS		
601	0.00000168	Vkt5Easy2.exe	IOCTL_SERIAL_SET_RTS	Npdrv2	SUCCESS		
602	0.00064841	Vkt5Easy2.exe	IRP_MJ_WRITE	Npdrv2	SUCCESS	Length 8: 00 05 11 00 00 34 C8 F0 	
603	0.00000475	Vkt5Easy2.exe	IOCTL_SERIAL_GET_COMMSTATUS	Npdrv2	SUCCESS		
604	0.03802997	Vkt5Easy2.exe	IRP_MJ_READ	Npdrv2	TIMEOUT	Length 104: 00 05 05 07 DF 06 05 0C 00 00 60 36 00 00 00 00 00 00 00 00 00 00 00 00 38 45 00 00 00 00 00 0B 38 45 00 00 00 00 00 0B 00 00 00 00 00 00 00 00 00 00 00 00 38 45 00 00 00 00 00 0B 38 45 00 00 00 00 00 0B 00 00 00 00 00 00 00 00 00 00 00 00 38 45 00 00 00 00 00 0B 38 45 00 00 00 00 00 0B 00 00 00 00 00 00 00 00 	
605	0.07913939	Vkt5Easy2.exe	IOCTL_SERIAL_WAIT_ON_MASK	Npdrv2	SUCCESS		
606	0.00000531	Vkt5Easy2.exe	IOCTL_SERIAL_GET_COMMSTATUS	Npdrv2	SUCCESS		
607	0.04379914	Vkt5Easy2.exe	IRP_MJ_READ	Npdrv2	TIMEOUT	Length 104: 00 00 00 00 38 45 00 00 00 00 00 0B 38 45 00 00 00 00 00 0B 00 00 00 3C 00 00 3C 00 04 E1 09 C4 38 45 00 00 00 00 00 0B 38 45 00 00 00 00 00 0B 00 00 00 00 00 00 3C 00 05 37 16 A8 38 45 00 00 00 00 00 0B 38 45 00 00 00 00 00 0B 00 00 00 00 00 00 00 00 00 00 00 00 38 45 00 00 00 00 00 0B 38 45 00 00 00 00 00 0B 	
608	0.02626144	Vkt5Easy2.exe	IOCTL_SERIAL_WAIT_ON_MASK	Npdrv2	SUCCESS		
609	0.00000447	Vkt5Easy2.exe	IOCTL_SERIAL_GET_COMMSTATUS	Npdrv2	SUCCESS		
610	0.03493768	Vkt5Easy2.exe	IRP_MJ_READ	Npdrv2	TIMEOUT	Length 58: 00 00 00 00 00 00 00 00 00 00 00 00 38 45 00 00 00 00 00 0B 38 45 00 00 00 00 00 0B 00 00 00 00 00 00 00 00 00 42 00 00 00 00 00 00 00 00 00 00 00 00 00 00 00 00 00 00 38 63 	
611	0.14004210	Vkt5Easy2.exe	IOCTL_SERIAL_PURGE	Npdrv2	SUCCESS	Purge: TXCLEAR 	
612	0.80638154	Vkt5Easy2.exe	IOCTL_SERIAL_WAIT_ON_MASK	Npdrv2	SUCCESS		
613	0.00000363	Vkt5Easy2.exe	IOCTL_SERIAL_SET_DTR	Npdrv2	SUCCESS		
614	0.00000223	Vkt5Easy2.exe	IOCTL_SERIAL_SET_RTS	Npdrv2	SUCCESS		
615	0.00070512	Vkt5Easy2.exe	IRP_MJ_WRITE	Npdrv2	SUCCESS	Length 8: 00 05 11 00 00 35 09 30 	
616	0.00000475	Vkt5Easy2.exe	IOCTL_SERIAL_GET_COMMSTATUS	Npdrv2	SUCCESS		
617	0.03609174	Vkt5Easy2.exe	IRP_MJ_READ	Npdrv2	TIMEOUT	Length 104: 00 05 05 07 DF 06 05 0D 00 01 60 A6 00 00 00 00 00 00 00 00 00 00 00 00 38 46 00 00 00 00 00 0C 38 46 00 00 00 00 00 0C 00 00 00 00 00 00 00 00 00 00 00 00 38 46 00 00 00 00 00 0C 38 46 00 00 00 00 00 0C 00 00 00 00 00 00 00 00 00 00 00 00 38 46 00 00 00 00 00 0C 38 46 00 00 00 00 00 0C 00 00 00 00 00 00 00 00 	
618	0.08175257	Vkt5Easy2.exe	IOCTL_SERIAL_WAIT_ON_MASK	Npdrv2	SUCCESS		
619	0.00000475	Vkt5Easy2.exe	IOCTL_SERIAL_GET_COMMSTATUS	Npdrv2	SUCCESS		
620	0.04199947	Vkt5Easy2.exe	IRP_MJ_READ	Npdrv2	TIMEOUT	Length 104: 00 00 00 00 38 46 00 00 00 00 00 0C 38 46 00 00 00 00 00 0C 00 00 00 3C 00 00 3C 00 05 7D 09 C4 38 46 00 00 00 00 00 0C 38 46 00 00 00 00 00 0C 00 00 00 00 00 00 3C 00 05 14 16 A8 38 46 00 00 00 00 00 0C 38 46 00 00 00 00 00 0C 00 00 00 00 00 00 00 00 00 00 00 00 38 46 00 00 00 00 00 0C 38 46 00 00 00 00 00 0C 	
621	0.02806251	Vkt5Easy2.exe	IOCTL_SERIAL_WAIT_ON_MASK	Npdrv2	SUCCESS		
622	0.00000475	Vkt5Easy2.exe	IOCTL_SERIAL_GET_COMMSTATUS	Npdrv2	SUCCESS		
623	0.03327658	Vkt5Easy2.exe	IRP_MJ_READ	Npdrv2	TIMEOUT	Length 58: 00 00 00 00 00 00 00 00 00 00 00 00 38 46 00 00 00 00 00 0C 38 46 00 00 00 00 00 0C 00 00 00 00 00 00 00 00 00 B5 00 00 00 00 00 00 00 00 00 00 00 00 00 00 00 00 00 00 C2 15 	
624	0.13958618	Vkt5Easy2.exe	IOCTL_SERIAL_PURGE	Npdrv2	SUCCESS	Purge: TXCLEAR 	
625	0.80827116	Vkt5Easy2.exe	IOCTL_SERIAL_WAIT_ON_MASK	Npdrv2	SUCCESS		
626	0.00000363	Vkt5Easy2.exe	IOCTL_SERIAL_SET_DTR	Npdrv2	SUCCESS		
627	0.00000168	Vkt5Easy2.exe	IOCTL_SERIAL_SET_RTS	Npdrv2	SUCCESS		
628	0.00065008	Vkt5Easy2.exe	IRP_MJ_WRITE	Npdrv2	SUCCESS	Length 8: 00 05 11 00 00 36 49 31 	
629	0.00000503	Vkt5Easy2.exe	IOCTL_SERIAL_GET_COMMSTATUS	Npdrv2	SUCCESS		
630	0.03415881	Vkt5Easy2.exe	IRP_MJ_READ	Npdrv2	TIMEOUT	Length 104: 00 05 05 07 DF 06 05 0E 00 01 60 56 00 00 00 00 00 00 00 00 00 00 00 00 38 47 00 00 00 00 00 0D 38 47 00 00 00 00 00 0D 00 00 00 00 00 00 00 00 00 00 00 00 38 47 00 00 00 00 00 0D 38 47 00 00 00 00 00 0D 00 00 00 00 00 00 00 00 00 00 00 00 38 47 00 00 00 00 00 0D 38 47 00 00 00 00 00 0D 00 00 00 00 00 00 00 00 	
631	0.08363018	Vkt5Easy2.exe	IOCTL_SERIAL_WAIT_ON_MASK	Npdrv2	SUCCESS		
632	0.00000503	Vkt5Easy2.exe	IOCTL_SERIAL_GET_COMMSTATUS	Npdrv2	SUCCESS		
633	0.04013806	Vkt5Easy2.exe	IRP_MJ_READ	Npdrv2	TIMEOUT	Length 104: 00 00 00 00 38 47 00 00 00 00 00 0D 38 47 00 00 00 00 00 0D 00 00 00 3C 00 00 3C 00 05 AD 09 C4 38 47 00 00 00 00 00 0D 38 47 00 00 00 00 00 0D 00 00 00 00 00 00 3C 00 04 ED 16 A8 38 47 00 00 00 00 00 0D 38 47 00 00 00 00 00 0D 00 00 00 00 00 00 00 00 00 00 00 00 38 47 00 00 00 00 00 0D 38 47 00 00 00 00 00 0D 	
634	0.03069217	Vkt5Easy2.exe	IOCTL_SERIAL_WAIT_ON_MASK	Npdrv2	SUCCESS		
635	0.00000419	Vkt5Easy2.exe	IOCTL_SERIAL_GET_COMMSTATUS	Npdrv2	SUCCESS		
636	0.04625001	Vkt5Easy2.exe	IRP_MJ_READ	Npdrv2	TIMEOUT	Length 58: 00 00 00 00 00 00 00 00 00 00 00 00 38 47 00 00 00 00 00 0D 38 47 00 00 00 00 00 0D 00 00 00 00 00 00 00 00 00 56 00 00 00 00 00 00 00 00 00 00 00 00 00 00 00 00 00 00 4E 80 	
637	0.13826478	Vkt5Easy2.exe	IOCTL_SERIAL_PURGE	Npdrv2	SUCCESS	Purge: TXCLEAR 	
638	0.79390509	Vkt5Easy2.exe	IOCTL_SERIAL_WAIT_ON_MASK	Npdrv2	SUCCESS		
639	0.00000391	Vkt5Easy2.exe	IOCTL_SERIAL_SET_DTR	Npdrv2	SUCCESS		
640	0.00000196	Vkt5Easy2.exe	IOCTL_SERIAL_SET_RTS	Npdrv2	SUCCESS		
641	0.00065316	Vkt5Easy2.exe	IRP_MJ_WRITE	Npdrv2	SUCCESS	Length 8: 00 05 11 00 00 37 88 F1 	
642	0.00000503	Vkt5Easy2.exe	IOCTL_SERIAL_GET_COMMSTATUS	Npdrv2	SUCCESS		
643	0.03292374	Vkt5Easy2.exe	IRP_MJ_READ	Npdrv2	TIMEOUT	Length 104: 00 05 05 07 DF 06 05 0F 00 02 A1 47 00 00 00 00 00 00 00 00 00 00 00 00 38 48 00 00 00 00 00 0E 38 48 00 00 00 00 00 0E 00 00 00 00 00 00 00 00 00 00 00 00 38 48 00 00 00 00 00 0E 38 48 00 00 00 00 00 0E 00 00 00 00 00 00 00 00 00 00 00 00 38 48 00 00 00 00 00 0E 38 48 00 00 00 00 00 0E 00 00 00 00 00 00 00 00 	
644	0.08492867	Vkt5Easy2.exe	IOCTL_SERIAL_WAIT_ON_MASK	Npdrv2	SUCCESS		
645	0.00000475	Vkt5Easy2.exe	IOCTL_SERIAL_GET_COMMSTATUS	Npdrv2	SUCCESS		
646	0.03889070	Vkt5Easy2.exe	IRP_MJ_READ	Npdrv2	TIMEOUT	Length 104: 00 00 00 00 38 48 00 00 00 00 00 0E 38 48 00 00 00 00 00 0E 00 00 00 3C 00 00 3C 00 05 A8 09 C4 38 48 00 00 00 00 00 0E 38 48 00 00 00 00 00 0E 00 00 00 00 00 00 3C 00 04 E9 16 A8 38 48 00 00 00 00 00 0E 38 48 00 00 00 00 00 0E 00 00 00 00 00 00 00 00 00 00 00 00 38 48 00 00 00 00 00 0E 38 48 00 00 00 00 00 0E 	
647	0.03121430	Vkt5Easy2.exe	IOCTL_SERIAL_WAIT_ON_MASK	Npdrv2	SUCCESS		
648	0.00000475	Vkt5Easy2.exe	IOCTL_SERIAL_GET_COMMSTATUS	Npdrv2	SUCCESS		
649	0.04574939	Vkt5Easy2.exe	IRP_MJ_READ	Npdrv2	TIMEOUT	Length 58: 00 00 00 00 00 00 00 00 00 00 00 00 38 48 00 00 00 00 00 0E 38 48 00 00 00 00 00 0E 00 00 00 00 00 00 00 00 00 8A 00 00 00 00 00 00 00 00 00 00 00 00 00 00 00 00 00 00 0A A8 	
650	0.13874752	Vkt5Easy2.exe	IOCTL_SERIAL_PURGE	Npdrv2	SUCCESS	Purge: TXCLEAR 	
651	0.79545920	Vkt5Easy2.exe	IOCTL_SERIAL_WAIT_ON_MASK	Npdrv2	SUCCESS		
652	0.00000363	Vkt5Easy2.exe	IOCTL_SERIAL_SET_DTR	Npdrv2	SUCCESS		
653	0.00000168	Vkt5Easy2.exe	IOCTL_SERIAL_SET_RTS	Npdrv2	SUCCESS		
654	0.00065008	Vkt5Easy2.exe	IRP_MJ_WRITE	Npdrv2	SUCCESS	Length 8: 00 05 11 00 00 38 C8 F5 	
655	0.00000475	Vkt5Easy2.exe	IOCTL_SERIAL_GET_COMMSTATUS	Npdrv2	SUCCESS		
656	0.03139812	Vkt5Easy2.exe	IRP_MJ_READ	Npdrv2	TIMEOUT	Length 104: 00 05 05 07 DF 06 05 10 00 02 67 76 00 00 00 00 00 00 00 00 00 00 00 00 38 49 00 00 00 00 00 0F 38 49 00 00 00 00 00 0F 00 00 00 00 00 00 00 00 00 00 00 00 38 49 00 00 00 00 00 0F 38 49 00 00 00 00 00 0F 00 00 00 00 00 00 00 00 00 00 00 00 38 49 00 00 00 00 00 0F 38 49 00 00 00 00 00 0F 00 00 00 00 00 00 00 00 	
657	0.08633919	Vkt5Easy2.exe	IOCTL_SERIAL_WAIT_ON_MASK	Npdrv2	SUCCESS		
658	0.00000587	Vkt5Easy2.exe	IOCTL_SERIAL_GET_COMMSTATUS	Npdrv2	SUCCESS		
659	0.03736620	Vkt5Easy2.exe	IRP_MJ_READ	Npdrv2	TIMEOUT	Length 104: 00 00 00 00 38 49 00 00 00 00 00 0F 38 49 00 00 00 00 00 0F 00 00 00 3C 00 00 3C 00 05 AC 09 C4 38 49 00 00 00 00 00 0F 38 49 00 00 00 00 00 0F 00 00 00 00 00 00 3C 00 04 EB 16 A8 38 49 00 00 00 00 00 0F 38 49 00 00 00 00 00 0F 00 00 00 00 00 00 00 00 00 00 00 00 38 49 00 00 00 00 00 0F 38 49 00 00 00 00 00 0F 	
660	0.03274243	Vkt5Easy2.exe	IOCTL_SERIAL_WAIT_ON_MASK	Npdrv2	SUCCESS		
661	0.00000447	Vkt5Easy2.exe	IOCTL_SERIAL_GET_COMMSTATUS	Npdrv2	SUCCESS		
662	0.04423607	Vkt5Easy2.exe	IRP_MJ_READ	Npdrv2	TIMEOUT	Length 58: 00 00 00 00 00 00 00 00 00 00 00 00 38 49 00 00 00 00 00 0F 38 49 00 00 00 00 00 0F 00 00 00 00 00 00 00 00 00 CB 00 00 00 00 00 00 00 00 00 00 00 00 00 00 00 00 00 00 0A 8C 	
663	0.13871819	Vkt5Easy2.exe	IOCTL_SERIAL_PURGE	Npdrv2	SUCCESS	Purge: TXCLEAR 	
664	0.79678143	Vkt5Easy2.exe	IOCTL_SERIAL_WAIT_ON_MASK	Npdrv2	SUCCESS		
665	0.00000391	Vkt5Easy2.exe	IOCTL_SERIAL_SET_DTR	Npdrv2	SUCCESS		
666	0.00000196	Vkt5Easy2.exe	IOCTL_SERIAL_SET_RTS	Npdrv2	SUCCESS		
667	0.00065260	Vkt5Easy2.exe	IRP_MJ_WRITE	Npdrv2	SUCCESS	Length 8: 00 05 11 00 00 39 09 35 	
668	0.00000503	Vkt5Easy2.exe	IOCTL_SERIAL_GET_COMMSTATUS	Npdrv2	SUCCESS		
669	0.04568458	Vkt5Easy2.exe	IRP_MJ_READ	Npdrv2	TIMEOUT	Length 104: 00 05 05 07 DF 06 05 11 00 03 67 E6 00 00 00 00 00 00 00 00 00 00 00 00 38 4A 00 00 00 00 00 10 38 4A 00 00 00 00 00 10 00 00 00 00 00 00 00 00 00 00 00 00 38 4A 00 00 00 00 00 10 38 4A 00 00 00 00 00 10 00 00 00 00 00 00 00 00 00 00 00 00 38 4A 00 00 00 00 00 10 38 4A 00 00 00 00 00 10 00 00 00 00 00 00 00 00 	
670	0.07183846	Vkt5Easy2.exe	IOCTL_SERIAL_WAIT_ON_MASK	Npdrv2	SUCCESS		
671	0.00000503	Vkt5Easy2.exe	IOCTL_SERIAL_GET_COMMSTATUS	Npdrv2	SUCCESS		
672	0.03572409	Vkt5Easy2.exe	IRP_MJ_READ	Npdrv2	TIMEOUT	Length 104: 00 00 00 00 38 4A 00 00 00 00 00 10 38 4A 00 00 00 00 00 10 00 00 00 3C 00 00 3C 00 05 AE 09 C4 38 4A 00 00 00 00 00 10 38 4A 00 00 00 00 00 10 00 00 00 00 00 00 3C 00 04 EB 16 A8 38 4A 00 00 00 00 00 10 38 4A 00 00 00 00 00 10 00 00 00 00 00 00 00 00 00 00 00 00 38 4A 00 00 00 00 00 10 38 4A 00 00 00 00 00 10 	
673	0.03390179	Vkt5Easy2.exe	IOCTL_SERIAL_WAIT_ON_MASK	Npdrv2	SUCCESS		
674	0.00000447	Vkt5Easy2.exe	IOCTL_SERIAL_GET_COMMSTATUS	Npdrv2	SUCCESS		
675	0.04253725	Vkt5Easy2.exe	IRP_MJ_READ	Npdrv2	TIMEOUT	Length 58: 00 00 00 00 00 00 00 00 00 00 00 00 38 4A 00 00 00 00 00 10 38 4A 00 00 00 00 00 10 00 00 00 00 00 00 00 00 00 1C 00 00 00 00 00 00 00 00 00 00 00 00 00 00 00 00 00 00 79 52 	
676	0.13882351	Vkt5Easy2.exe	IOCTL_SERIAL_PURGE	Npdrv2	SUCCESS	Purge: TXCLEAR 	
677	0.80048777	Vkt5Easy2.exe	IOCTL_SERIAL_WAIT_ON_MASK	Npdrv2	SUCCESS		
678	0.00000335	Vkt5Easy2.exe	IOCTL_SERIAL_SET_DTR	Npdrv2	SUCCESS		
679	0.00000196	Vkt5Easy2.exe	IOCTL_SERIAL_SET_RTS	Npdrv2	SUCCESS		
680	0.00064869	Vkt5Easy2.exe	IRP_MJ_WRITE	Npdrv2	SUCCESS	Length 8: 00 05 11 00 00 3A 49 34 	
681	0.00000503	Vkt5Easy2.exe	IOCTL_SERIAL_GET_COMMSTATUS	Npdrv2	SUCCESS		
682	0.04311665	Vkt5Easy2.exe	IRP_MJ_READ	Npdrv2	TIMEOUT	Length 104: 00 05 05 07 DF 06 05 12 00 03 67 16 00 00 00 00 00 00 00 00 00 00 00 00 38 4B 00 00 00 00 00 11 38 4B 00 00 00 00 00 11 00 00 00 00 00 00 00 00 00 00 00 00 38 4B 00 00 00 00 00 11 38 4B 00 00 00 00 00 11 00 00 00 00 00 00 00 00 00 00 00 00 38 4B 00 00 00 00 00 11 38 4B 00 00 00 00 00 11 00 00 00 00 00 00 00 00 	
683	0.07534757	Vkt5Easy2.exe	IOCTL_SERIAL_WAIT_ON_MASK	Npdrv2	SUCCESS		
684	0.00000447	Vkt5Easy2.exe	IOCTL_SERIAL_GET_COMMSTATUS	Npdrv2	SUCCESS		
685	0.03284077	Vkt5Easy2.exe	IRP_MJ_READ	Npdrv2	TIMEOUT	Length 104: 00 00 00 00 38 4B 00 00 00 00 00 11 38 4B 00 00 00 00 00 11 00 00 00 3C 00 00 3C 00 05 AA 09 C4 38 4B 00 00 00 00 00 11 38 4B 00 00 00 00 00 11 00 00 00 00 00 00 3C 00 04 EC 16 A8 38 4B 00 00 00 00 00 11 38 4B 00 00 00 00 00 11 00 00 00 00 00 00 00 00 00 00 00 00 38 4B 00 00 00 00 00 11 38 4B 00 00 00 00 00 11 	
686	0.03727848	Vkt5Easy2.exe	IOCTL_SERIAL_WAIT_ON_MASK	Npdrv2	SUCCESS		
687	0.00000447	Vkt5Easy2.exe	IOCTL_SERIAL_GET_COMMSTATUS	Npdrv2	SUCCESS		
688	0.03969220	Vkt5Easy2.exe	IRP_MJ_READ	Npdrv2	TIMEOUT	Length 58: 00 00 00 00 00 00 00 00 00 00 00 00 38 4B 00 00 00 00 00 11 38 4B 00 00 00 00 00 11 00 00 00 00 00 00 00 00 00 F7 00 00 00 00 00 00 00 00 00 00 00 00 00 00 00 00 00 00 1F 58 	
689	0.13878133	Vkt5Easy2.exe	IOCTL_SERIAL_PURGE	Npdrv2	SUCCESS	Purge: TXCLEAR 	
690	0.80079424	Vkt5Easy2.exe	IOCTL_SERIAL_WAIT_ON_MASK	Npdrv2	SUCCESS		
691	0.00000391	Vkt5Easy2.exe	IOCTL_SERIAL_SET_DTR	Npdrv2	SUCCESS		
692	0.00000196	Vkt5Easy2.exe	IOCTL_SERIAL_SET_RTS	Npdrv2	SUCCESS		
693	0.00064924	Vkt5Easy2.exe	IRP_MJ_WRITE	Npdrv2	SUCCESS	Length 8: 00 05 11 00 00 3B 88 F4 	
694	0.00000475	Vkt5Easy2.exe	IOCTL_SERIAL_GET_COMMSTATUS	Npdrv2	SUCCESS		
695	0.04161674	Vkt5Easy2.exe	IRP_MJ_READ	Npdrv2	TIMEOUT	Length 104: 00 05 05 07 DF 06 05 13 00 04 65 06 00 00 00 00 00 00 00 00 00 00 00 00 38 4C 00 00 00 00 00 12 38 4C 00 00 00 00 00 12 00 00 00 00 00 00 00 00 00 00 00 00 38 4C 00 00 00 00 00 12 38 4C 00 00 00 00 00 12 00 00 00 00 00 00 00 00 00 00 00 00 38 4C 00 00 00 00 00 12 38 4C 00 00 00 00 00 12 00 00 00 00 00 00 00 00 	
696	0.07623287	Vkt5Easy2.exe	IOCTL_SERIAL_WAIT_ON_MASK	Npdrv2	SUCCESS		
697	0.00000475	Vkt5Easy2.exe	IOCTL_SERIAL_GET_COMMSTATUS	Npdrv2	SUCCESS		
698	0.03196105	Vkt5Easy2.exe	IRP_MJ_READ	Npdrv2	TIMEOUT	Length 104: 00 00 00 00 38 4C 00 00 00 00 00 12 38 4C 00 00 00 00 00 12 00 00 00 3C 00 00 3C 00 05 AF 09 C4 38 4C 00 00 00 00 00 12 38 4C 00 00 00 00 00 12 00 00 00 00 00 00 3C 00 04 EC 16 A8 38 4C 00 00 00 00 00 12 38 4C 00 00 00 00 00 12 00 00 00 00 00 00 00 00 00 00 00 00 38 4C 00 00 00 00 00 12 38 4C 00 00 00 00 00 12 	
699	0.03815848	Vkt5Easy2.exe	IOCTL_SERIAL_WAIT_ON_MASK	Npdrv2	SUCCESS		
700	0.00000503	Vkt5Easy2.exe	IOCTL_SERIAL_GET_COMMSTATUS	Npdrv2	SUCCESS		
701	0.03879432	Vkt5Easy2.exe	IRP_MJ_READ	Npdrv2	TIMEOUT	Length 58: 00 00 00 00 00 00 00 00 00 00 00 00 38 4C 00 00 00 00 00 12 38 4C 00 00 00 00 00 12 00 00 00 00 00 00 00 00 00 CF 00 00 00 00 00 00 00 00 00 00 00 00 00 00 00 00 00 00 FB 14 	
702	0.13850000	Vkt5Easy2.exe	IOCTL_SERIAL_PURGE	Npdrv2	SUCCESS	Purge: TXCLEAR 	
703	0.80214860	Vkt5Easy2.exe	IOCTL_SERIAL_WAIT_ON_MASK	Npdrv2	SUCCESS		
704	0.00000335	Vkt5Easy2.exe	IOCTL_SERIAL_SET_DTR	Npdrv2	SUCCESS		
705	0.00000196	Vkt5Easy2.exe	IOCTL_SERIAL_SET_RTS	Npdrv2	SUCCESS		
706	0.00065120	Vkt5Easy2.exe	IRP_MJ_WRITE	Npdrv2	SUCCESS	Length 8: 00 05 11 00 00 3C C9 36 	
707	0.00000475	Vkt5Easy2.exe	IOCTL_SERIAL_GET_COMMSTATUS	Npdrv2	SUCCESS		
708	0.04027132	Vkt5Easy2.exe	IRP_MJ_READ	Npdrv2	TIMEOUT	Length 104: 00 05 05 07 DF 06 05 14 00 04 A4 B7 00 00 00 00 00 00 00 00 00 00 00 00 38 4D 00 00 00 00 00 13 38 4D 00 00 00 00 00 13 00 00 00 00 00 00 00 00 00 00 00 00 38 4D 00 00 00 00 00 13 38 4D 00 00 00 00 00 13 00 00 00 00 00 00 00 00 00 00 00 00 38 4D 00 00 00 00 00 13 38 4D 00 00 00 00 00 13 00 00 00 00 00 00 00 00 	
709	0.07755371	Vkt5Easy2.exe	IOCTL_SERIAL_WAIT_ON_MASK	Npdrv2	SUCCESS		
710	0.00000475	Vkt5Easy2.exe	IOCTL_SERIAL_GET_COMMSTATUS	Npdrv2	SUCCESS		
711	0.04623912	Vkt5Easy2.exe	IRP_MJ_READ	Npdrv2	TIMEOUT	Length 104: 00 00 00 00 38 4D 00 00 00 00 00 13 38 4D 00 00 00 00 00 13 00 00 00 3C 00 00 3C 00 05 43 09 C4 38 4D 00 00 00 00 00 13 38 4D 00 00 00 00 00 13 00 00 00 00 00 00 3C 00 04 94 16 A8 38 4D 00 00 00 00 00 13 38 4D 00 00 00 00 00 13 00 00 00 00 00 00 00 00 00 00 00 00 38 4D 00 00 00 00 00 13 38 4D 00 00 00 00 00 13 	
712	0.02387678	Vkt5Easy2.exe	IOCTL_SERIAL_WAIT_ON_MASK	Npdrv2	SUCCESS		
713	0.00000503	Vkt5Easy2.exe	IOCTL_SERIAL_GET_COMMSTATUS	Npdrv2	SUCCESS		
714	0.03746147	Vkt5Easy2.exe	IRP_MJ_READ	Npdrv2	TIMEOUT	Length 58: 00 00 00 00 00 00 00 00 00 00 00 00 38 4D 00 00 00 00 00 13 38 4D 00 00 00 00 00 13 00 00 00 00 00 00 00 00 00 F3 00 00 00 00 00 00 00 00 00 00 00 00 00 00 00 00 00 00 EE E4 	
715	0.13955656	Vkt5Easy2.exe	IOCTL_SERIAL_PURGE	Npdrv2	SUCCESS	Purge: TXCLEAR 	
716	0.80263693	Vkt5Easy2.exe	IOCTL_SERIAL_WAIT_ON_MASK	Npdrv2	SUCCESS		
717	0.00000391	Vkt5Easy2.exe	IOCTL_SERIAL_SET_DTR	Npdrv2	SUCCESS		
718	0.00000168	Vkt5Easy2.exe	IOCTL_SERIAL_SET_RTS	Npdrv2	SUCCESS		
719	0.00065260	Vkt5Easy2.exe	IRP_MJ_WRITE	Npdrv2	SUCCESS	Length 8: 00 05 11 00 00 3D 08 F6 	
720	0.00000475	Vkt5Easy2.exe	IOCTL_SERIAL_GET_COMMSTATUS	Npdrv2	SUCCESS		
721	0.03896920	Vkt5Easy2.exe	IRP_MJ_READ	Npdrv2	TIMEOUT	Length 104: 00 05 05 07 DF 06 05 15 00 00 A7 E7 00 00 00 00 00 00 00 00 00 00 00 00 38 4E 00 00 00 00 00 14 38 4E 00 00 00 00 00 14 00 00 00 00 00 00 00 00 00 00 00 00 38 4E 00 00 00 00 00 14 38 4E 00 00 00 00 00 14 00 00 00 00 00 00 00 00 00 00 00 00 38 4E 00 00 00 00 00 14 38 4E 00 00 00 00 00 14 00 00 00 00 00 00 00 00 	
722	0.07886924	Vkt5Easy2.exe	IOCTL_SERIAL_WAIT_ON_MASK	Npdrv2	SUCCESS		
723	0.00000475	Vkt5Easy2.exe	IOCTL_SERIAL_GET_COMMSTATUS	Npdrv2	SUCCESS		
724	0.04494119	Vkt5Easy2.exe	IRP_MJ_READ	Npdrv2	TIMEOUT	Length 104: 00 00 00 00 38 4E 00 00 00 00 00 14 38 4E 00 00 00 00 00 14 00 00 00 3B 00 00 3B 00 04 63 09 C4 38 4E 00 00 00 00 00 14 38 4E 00 00 00 00 00 14 00 00 00 00 00 00 3B 00 03 D4 16 A8 38 4E 00 00 00 00 00 14 38 4E 00 00 00 00 00 14 00 00 00 00 00 00 00 00 00 00 00 00 38 4E 00 00 00 00 00 14 38 4E 00 00 00 00 00 14 	
725	0.02557364	Vkt5Easy2.exe	IOCTL_SERIAL_WAIT_ON_MASK	Npdrv2	SUCCESS		
726	0.00000531	Vkt5Easy2.exe	IOCTL_SERIAL_GET_COMMSTATUS	Npdrv2	SUCCESS		
727	0.03576320	Vkt5Easy2.exe	IRP_MJ_READ	Npdrv2	TIMEOUT	Length 58: 00 00 00 00 00 00 00 00 00 00 00 00 38 4E 00 00 00 00 00 14 38 4E 00 00 00 00 00 14 00 00 00 00 00 00 00 00 00 1C 00 00 00 00 00 00 00 00 00 00 00 00 00 00 00 00 00 00 86 3D 	
728	0.13900873	Vkt5Easy2.exe	IOCTL_SERIAL_PURGE	Npdrv2	SUCCESS	Purge: TXCLEAR 	
729	0.80581443	Vkt5Easy2.exe	IOCTL_SERIAL_WAIT_ON_MASK	Npdrv2	SUCCESS		
730	0.00000335	Vkt5Easy2.exe	IOCTL_SERIAL_SET_DTR	Npdrv2	SUCCESS		
731	0.00000168	Vkt5Easy2.exe	IOCTL_SERIAL_SET_RTS	Npdrv2	SUCCESS		
732	0.00065204	Vkt5Easy2.exe	IRP_MJ_WRITE	Npdrv2	SUCCESS	Length 8: 00 05 11 00 00 3E 48 F7 	
733	0.00000447	Vkt5Easy2.exe	IOCTL_SERIAL_GET_COMMSTATUS	Npdrv2	SUCCESS		
734	0.03628925	Vkt5Easy2.exe	IRP_MJ_READ	Npdrv2	TIMEOUT	Length 104: 00 05 05 07 DF 06 05 16 00 00 A7 17 00 00 00 00 00 00 00 00 00 00 00 00 38 4F 00 00 00 00 00 15 38 4F 00 00 00 00 00 15 00 00 00 00 00 00 00 00 00 00 00 00 38 4F 00 00 00 00 00 15 38 4F 00 00 00 00 00 15 00 00 00 00 00 00 00 00 00 00 00 00 38 4F 00 00 00 00 00 15 38 4F 00 00 00 00 00 15 00 00 00 00 00 00 00 00 	
735	0.08159333	Vkt5Easy2.exe	IOCTL_SERIAL_WAIT_ON_MASK	Npdrv2	SUCCESS		
736	0.00000503	Vkt5Easy2.exe	IOCTL_SERIAL_GET_COMMSTATUS	Npdrv2	SUCCESS		
737	0.04223637	Vkt5Easy2.exe	IRP_MJ_READ	Npdrv2	TIMEOUT	Length 104: 00 00 00 00 38 4F 00 00 00 00 00 15 38 4F 00 00 00 00 00 15 00 00 00 3C 00 00 3C 00 04 34 09 C4 38 4F 00 00 00 00 00 15 38 4F 00 00 00 00 00 15 00 00 00 00 00 00 3C 00 03 A9 16 A8 38 4F 00 00 00 00 00 15 38 4F 00 00 00 00 00 15 00 00 00 00 00 00 00 00 00 00 00 00 38 4F 00 00 00 00 00 15 38 4F 00 00 00 00 00 15 	
738	0.02725207	Vkt5Easy2.exe	IOCTL_SERIAL_WAIT_ON_MASK	Npdrv2	SUCCESS		
739	0.00000475	Vkt5Easy2.exe	IOCTL_SERIAL_GET_COMMSTATUS	Npdrv2	SUCCESS		
740	0.03347520	Vkt5Easy2.exe	IRP_MJ_READ	Npdrv2	TIMEOUT	Length 58: 00 00 00 00 00 00 00 00 00 00 00 00 38 4F 00 00 00 00 00 15 38 4F 00 00 00 00 00 15 00 00 00 00 00 00 00 00 00 92 00 00 00 00 00 00 00 00 00 00 00 00 00 00 00 00 00 00 EE E4 	
741	0.13951745	Vkt5Easy2.exe	IOCTL_SERIAL_PURGE	Npdrv2	SUCCESS	Purge: TXCLEAR 	
742	0.80802756	Vkt5Easy2.exe	IOCTL_SERIAL_WAIT_ON_MASK	Npdrv2	SUCCESS		
743	0.00000335	Vkt5Easy2.exe	IOCTL_SERIAL_SET_DTR	Npdrv2	SUCCESS		
744	0.00000140	Vkt5Easy2.exe	IOCTL_SERIAL_SET_RTS	Npdrv2	SUCCESS		
745	0.00064897	Vkt5Easy2.exe	IRP_MJ_WRITE	Npdrv2	SUCCESS	Length 8: 00 05 11 00 00 3F 89 37 	
746	0.00000503	Vkt5Easy2.exe	IOCTL_SERIAL_GET_COMMSTATUS	Npdrv2	SUCCESS		
747	0.03444181	Vkt5Easy2.exe	IRP_MJ_READ	Npdrv2	TIMEOUT	Length 104: 00 05 05 07 DF 06 05 17 00 01 A7 87 00 00 00 00 00 00 00 00 00 00 00 00 38 50 00 00 00 00 00 0B 38 50 00 00 00 00 00 0B 00 00 00 00 00 00 00 00 00 00 00 00 38 50 00 00 00 00 00 0B 38 50 00 00 00 00 00 0B 00 00 00 00 00 00 00 00 00 00 00 00 38 50 00 00 00 00 00 0B 38 50 00 00 00 00 00 0B 00 00 00 00 00 00 00 00 	
748	0.08367544	Vkt5Easy2.exe	IOCTL_SERIAL_WAIT_ON_MASK	Npdrv2	SUCCESS		
749	0.00000531	Vkt5Easy2.exe	IOCTL_SERIAL_GET_COMMSTATUS	Npdrv2	SUCCESS		
750	0.03984557	Vkt5Easy2.exe	IRP_MJ_READ	Npdrv2	TIMEOUT	Length 104: 00 00 00 00 38 50 00 00 00 00 00 0B 38 50 00 00 00 00 00 0B 00 00 00 3C 00 00 3C 00 04 20 09 C4 38 50 00 00 00 00 00 0B 38 50 00 00 00 00 00 0B 00 00 00 00 00 00 3C 00 03 92 16 A8 38 50 00 00 00 00 00 0B 38 50 00 00 00 00 00 0B 00 00 00 00 00 00 00 00 00 00 00 00 38 50 00 00 00 00 00 0B 38 50 00 00 00 00 00 0B 	
751	0.03036028	Vkt5Easy2.exe	IOCTL_SERIAL_WAIT_ON_MASK	Npdrv2	SUCCESS		
752	0.00000475	Vkt5Easy2.exe	IOCTL_SERIAL_GET_COMMSTATUS	Npdrv2	SUCCESS		
753	0.04655787	Vkt5Easy2.exe	IRP_MJ_READ	Npdrv2	TIMEOUT	Length 58: 00 00 00 00 00 00 00 00 00 00 00 00 38 50 00 00 00 00 00 0B 38 50 00 00 00 00 00 0B 00 00 00 00 00 00 00 00 00 12 00 00 00 00 00 00 00 00 00 00 00 00 00 00 00 00 00 00 87 E1 	
754	0.13876792	Vkt5Easy2.exe	IOCTL_SERIAL_PURGE	Npdrv2	SUCCESS	Purge: TXCLEAR 	
755	0.79361092	Vkt5Easy2.exe	IOCTL_SERIAL_WAIT_ON_MASK	Npdrv2	SUCCESS		
756	0.00000335	Vkt5Easy2.exe	IOCTL_SERIAL_SET_DTR	Npdrv2	SUCCESS		
757	0.00000168	Vkt5Easy2.exe	IOCTL_SERIAL_SET_RTS	Npdrv2	SUCCESS		
758	0.00065148	Vkt5Easy2.exe	IRP_MJ_WRITE	Npdrv2	SUCCESS	Length 8: 00 05 11 00 00 40 C8 D7 	
759	0.00000503	Vkt5Easy2.exe	IOCTL_SERIAL_GET_COMMSTATUS	Npdrv2	SUCCESS		
760	0.03311845	Vkt5Easy2.exe	IRP_MJ_READ	Npdrv2	TIMEOUT	Length 104: 00 05 05 07 DF 06 06 00 00 01 E7 37 00 00 00 00 00 00 00 00 00 00 00 00 38 50 80 00 00 00 00 0C 38 50 80 00 00 00 00 0C 00 00 00 00 00 00 00 00 00 00 00 00 38 50 80 00 00 00 00 0C 38 50 80 00 00 00 00 0C 00 00 00 00 00 00 00 00 00 00 00 00 38 50 80 00 00 00 00 0C 38 50 80 00 00 00 00 0C 00 00 00 00 00 00 00 00 	
761	0.08483760	Vkt5Easy2.exe	IOCTL_SERIAL_WAIT_ON_MASK	Npdrv2	SUCCESS		
762	0.00000531	Vkt5Easy2.exe	IOCTL_SERIAL_GET_COMMSTATUS	Npdrv2	SUCCESS		
763	0.03846103	Vkt5Easy2.exe	IRP_MJ_READ	Npdrv2	TIMEOUT	Length 104: 00 00 00 00 38 50 80 00 00 00 00 0C 38 50 80 00 00 00 00 0C 00 00 00 3C 00 00 3C 00 04 1B 09 C4 38 50 80 00 00 00 00 0C 38 50 80 00 00 00 00 0C 00 00 00 00 00 00 3C 00 03 90 16 A8 38 50 80 00 00 00 00 0C 38 50 80 00 00 00 00 0C 00 00 00 00 00 00 00 00 00 00 00 00 38 50 80 00 00 00 00 0C 38 50 80 00 00 00 00 0C 	
764	0.03162860	Vkt5Easy2.exe	IOCTL_SERIAL_WAIT_ON_MASK	Npdrv2	SUCCESS		
765	0.00000531	Vkt5Easy2.exe	IOCTL_SERIAL_GET_COMMSTATUS	Npdrv2	SUCCESS		
766	0.04554573	Vkt5Easy2.exe	IRP_MJ_READ	Npdrv2	TIMEOUT	Length 58: 00 00 00 00 00 00 00 00 00 00 00 00 38 50 80 00 00 00 00 0C 38 50 80 00 00 00 00 0C 00 00 00 00 00 00 00 00 00 A8 00 00 00 00 00 00 00 00 00 00 00 00 00 00 00 00 00 00 51 42 	
767	0.13850978	Vkt5Easy2.exe	IOCTL_SERIAL_PURGE	Npdrv2	SUCCESS	Purge: TXCLEAR 	
768	0.79542707	Vkt5Easy2.exe	IOCTL_SERIAL_WAIT_ON_MASK	Npdrv2	SUCCESS		
769	0.00000419	Vkt5Easy2.exe	IOCTL_SERIAL_SET_DTR	Npdrv2	SUCCESS		
770	0.00000168	Vkt5Easy2.exe	IOCTL_SERIAL_SET_RTS	Npdrv2	SUCCESS		
771	0.00065763	Vkt5Easy2.exe	IRP_MJ_WRITE	Npdrv2	SUCCESS	Length 8: 00 05 11 00 00 41 09 17 	
772	0.00000447	Vkt5Easy2.exe	IOCTL_SERIAL_GET_COMMSTATUS	Npdrv2	SUCCESS		
773	0.03140790	Vkt5Easy2.exe	IRP_MJ_READ	Npdrv2	TIMEOUT	Length 104: 00 05 05 07 DF 06 06 01 00 02 26 26 00 00 00 00 00 00 00 00 00 00 00 00 38 51 00 00 00 00 00 0D 38 51 00 00 00 00 00 0D 00 00 00 00 00 00 00 00 00 00 00 00 38 51 00 00 00 00 00 0D 38 51 00 00 00 00 00 0D 00 00 00 00 00 00 00 00 00 00 00 00 38 51 00 00 00 00 00 0D 38 51 00 00 00 00 00 0D 00 00 00 00 00 00 00 00 	
774	0.08715214	Vkt5Easy2.exe	IOCTL_SERIAL_WAIT_ON_MASK	Npdrv2	SUCCESS		
775	0.00000503	Vkt5Easy2.exe	IOCTL_SERIAL_GET_COMMSTATUS	Npdrv2	SUCCESS		
776	0.03662421	Vkt5Easy2.exe	IRP_MJ_READ	Npdrv2	TIMEOUT	Length 104: 00 00 00 00 38 51 00 00 00 00 00 0D 38 51 00 00 00 00 00 0D 00 00 00 3C 00 00 3C 00 04 19 09 C4 38 51 00 00 00 00 00 0D 38 51 00 00 00 00 00 0D 00 00 00 00 00 00 3C 00 03 8F 16 A8 38 51 00 00 00 00 00 0D 38 51 00 00 00 00 00 0D 00 00 00 00 00 00 00 00 00 00 00 00 38 51 00 00 00 00 00 0D 38 51 00 00 00 00 00 0D 	
777	0.03329948	Vkt5Easy2.exe	IOCTL_SERIAL_WAIT_ON_MASK	Npdrv2	SUCCESS		
778	0.00000503	Vkt5Easy2.exe	IOCTL_SERIAL_GET_COMMSTATUS	Npdrv2	SUCCESS		
779	0.04346754	Vkt5Easy2.exe	IRP_MJ_READ	Npdrv2	TIMEOUT	Length 58: 00 00 00 00 00 00 00 00 00 00 00 00 38 51 00 00 00 00 00 0D 38 51 00 00 00 00 00 0D 00 00 00 00 00 00 00 00 00 36 00 00 00 00 00 00 00 00 00 00 00 00 00 00 00 00 00 00 A4 1F 	
780	0.13875451	Vkt5Easy2.exe	IOCTL_SERIAL_PURGE	Npdrv2	SUCCESS	Purge: TXCLEAR 	
781	0.79648196	Vkt5Easy2.exe	IOCTL_SERIAL_WAIT_ON_MASK	Npdrv2	SUCCESS		
782	0.00000335	Vkt5Easy2.exe	IOCTL_SERIAL_SET_DTR	Npdrv2	SUCCESS		
783	0.00000140	Vkt5Easy2.exe	IOCTL_SERIAL_SET_RTS	Npdrv2	SUCCESS		
784	0.00065120	Vkt5Easy2.exe	IRP_MJ_WRITE	Npdrv2	SUCCESS	Length 8: 00 05 11 00 00 42 49 16 	
785	0.00000447	Vkt5Easy2.exe	IOCTL_SERIAL_GET_COMMSTATUS	Npdrv2	SUCCESS		
786	0.04600696	Vkt5Easy2.exe	IRP_MJ_READ	Npdrv2	TIMEOUT	Length 104: 00 05 05 07 DF 06 06 02 00 02 26 D6 00 00 00 00 00 00 00 00 00 00 00 00 38 51 80 00 00 00 00 0E 38 51 80 00 00 00 00 0E 00 00 00 00 00 00 00 00 00 00 00 00 38 51 80 00 00 00 00 0E 38 51 80 00 00 00 00 0E 00 00 00 00 00 00 00 00 00 00 00 00 38 51 80 00 00 00 00 0E 38 51 80 00 00 00 00 0E 00 00 00 00 00 00 00 00 	
787	0.07183846	Vkt5Easy2.exe	IOCTL_SERIAL_WAIT_ON_MASK	Npdrv2	SUCCESS		
788	0.00000559	Vkt5Easy2.exe	IOCTL_SERIAL_GET_COMMSTATUS	Npdrv2	SUCCESS		
789	0.03634820	Vkt5Easy2.exe	IRP_MJ_READ	Npdrv2	TIMEOUT	Length 104: 00 00 00 00 38 51 80 00 00 00 00 0E 38 51 80 00 00 00 00 0E 00 00 00 3C 00 00 3C 00 04 17 09 C4 38 51 80 00 00 00 00 0E 38 51 80 00 00 00 00 0E 00 00 00 00 00 00 3C 00 03 8E 16 A8 38 51 80 00 00 00 00 0E 38 51 80 00 00 00 00 0E 00 00 00 00 00 00 00 00 00 00 00 00 38 51 80 00 00 00 00 0E 38 51 80 00 00 00 00 0E 	
790	0.03399147	Vkt5Easy2.exe	IOCTL_SERIAL_WAIT_ON_MASK	Npdrv2	SUCCESS		
791	0.00000475	Vkt5Easy2.exe	IOCTL_SERIAL_GET_COMMSTATUS	Npdrv2	SUCCESS		
